"# Channel 1"
"# Trace 1"
Frequency, Formatted Data, Formatted Data
+3.00000000000E+008, +4.36280049304E-005, +1.19789596771E-003
+3.02639296188E+008, +4.99938306325E-005, +1.21142373130E-003
+3.05278592375E+008, +5.10847603298E-005, +1.22422095900E-003
+3.07917888563E+008, +5.30714732938E-005, +1.24036150432E-003
+3.10557184751E+008, +5.69802871130E-005, +1.25134699109E-003
+3.13196480938E+008, +6.08271318223E-005, +1.26325177911E-003
+3.15835777126E+008, +6.28712971521E-005, +1.27225527812E-003
+3.18475073314E+008, +6.41836567600E-005, +1.28409979068E-003
+3.21114369501E+008, +6.39657653153E-005, +1.29464146457E-003
+3.23753665689E+008, +6.72103212756E-005, +1.30971230736E-003
+3.26392961877E+008, +6.50047995129E-005, +1.32020712039E-003
+3.29032258065E+008, +6.46756440324E-005, +1.33072031930E-003
+3.31671554252E+008, +6.68225585380E-005, +1.34359120135E-003
+3.34310850440E+008, +6.65356894958E-005, +1.35466081315E-003
+3.36950146628E+008, +6.70832590639E-005, +1.36461905138E-003
+3.39589442815E+008, +6.67592914726E-005, +1.37539436589E-003
+3.42228739003E+008, +6.61552698436E-005, +1.38242085463E-003
+3.44868035191E+008, +6.66952217351E-005, +1.39631574777E-003
+3.47507331378E+008, +6.50378547953E-005, +1.40520332973E-003
+3.50146627566E+008, +6.75057174103E-005, +1.41691683876E-003
+3.52785923754E+008, +6.55669599884E-005, +1.42639051411E-003
+3.55425219941E+008, +6.46462960049E-005, +1.43748107275E-003
+3.58064516129E+008, +6.31672918899E-005, +1.44871989526E-003
+3.60703812317E+008, +6.04139978366E-005, +1.45950796064E-003
+3.63343108504E+008, +5.78517771660E-005, +1.46826902922E-003
+3.65982404692E+008, +5.92580817074E-005, +1.47485348856E-003
+3.68621700880E+008, +5.72418444463E-005, +1.48413416202E-003
+3.71260997067E+008, +5.72129338258E-005, +1.49291210281E-003
+3.73900293255E+008, +5.65691099226E-005, +1.50264132117E-003
+3.76539589443E+008, +5.31303518692E-005, +1.51259746183E-003
+3.79178885630E+008, +5.43947403324E-005, +1.52193497048E-003
+3.81818181818E+008, +5.21976216244E-005, +1.53186984506E-003
+3.84457478006E+008, +5.30789823578E-005, +1.54258032278E-003
+3.87096774194E+008, +5.20996773962E-005, +1.55255326008E-003
+3.89736070381E+008, +5.15138167725E-005, +1.56317395264E-003
+3.92375366569E+008, +5.26023252197E-005, +1.56879790554E-003
+3.95014662757E+008, +5.17217602678E-005, +1.57940108488E-003
+3.97653958944E+008, +5.14202022515E-005, +1.59327753325E-003
+4.00293255132E+008, +5.02959139151E-005, +1.59943727082E-003
+4.02932551320E+008, +5.16193397492E-005, +1.60716712290E-003
+4.05571847507E+008, +5.20980086591E-005, +1.61943820073E-003
+4.08211143695E+008, +5.39659741752E-005, +1.62894479423E-003
+4.10850439883E+008, +5.05623000790E-005, +1.64029742264E-003
+4.13489736070E+008, +5.49196480114E-005, +1.65075566912E-003
+4.16129032258E+008, +5.83792100691E-005, +1.66542396711E-003
+4.18768328446E+008, +5.45053781609E-005, +1.67166809320E-003
+4.21407624633E+008, +6.14726056371E-005, +1.68648008064E-003
+4.24046920821E+008, +5.76498044496E-005, +1.69521610448E-003
+4.26686217009E+008, +6.11958885859E-005, +1.71067233500E-003
+4.29325513196E+008, +6.41140982688E-005, +1.71635700431E-003
+4.31964809384E+008, +5.94927973670E-005, +1.73161597830E-003
+4.34604105572E+008, +6.50378824188E-005, +1.74084811047E-003
+4.37243401760E+008, +6.85348363306E-005, +1.75321294646E-003
+4.39882697947E+008, +6.65570973732E-005, +1.76338636456E-003
+4.42521994135E+008, +6.70504204515E-005, +1.77351172654E-003
+4.45161290323E+008, +6.75993249361E-005, +1.78636221240E-003
+4.47800586510E+008, +7.15650325725E-005, +1.79843487951E-003
+4.50439882698E+008, +7.02532842089E-005, +1.80899192597E-003
+4.53079178886E+008, +7.13087938398E-005, +1.82217485414E-003
+4.55718475073E+008, +7.34087542435E-005, +1.83194155277E-003
+4.58357771261E+008, +7.24458068034E-005, +1.84671610476E-003
+4.60997067449E+008, +7.22658063328E-005, +1.85713717416E-003
+4.63636363636E+008, +7.01383256592E-005, +1.86892115130E-003
+4.66275659824E+008, +7.12634513687E-005, +1.88079030673E-003
+4.68914956012E+008, +7.04083155855E-005, +1.88891045104E-003
+4.71554252199E+008, +7.22750709065E-005, +1.89952446823E-003
+4.74193548387E+008, +7.26298806758E-005, +1.90667557339E-003
+4.76832844575E+008, +6.97905285408E-005, +1.91984730158E-003
+4.79472140762E+008, +6.92965477959E-005, +1.93158909595E-003
+4.82111436950E+008, +6.78902896542E-005, +1.94038457309E-003
+4.84750733138E+008, +6.61592595529E-005, +1.95081526757E-003
+4.87390029326E+008, +6.68056195527E-005, +1.95783926225E-003
+4.90029325513E+008, +6.64106615313E-005, +1.97355849015E-003
+4.92668621701E+008, +6.78040775803E-005, +1.98084369101E-003
+4.95307917889E+008, +6.49634000400E-005, +1.99082894561E-003
+4.97947214076E+008, +6.26087020848E-005, +2.00125139330E-003
+5.00586510264E+008, +6.31729365302E-005, +2.01021781089E-003
+5.03225806452E+008, +6.26027813633E-005, +2.01795636277E-003
+5.05865102639E+008, +6.28700016473E-005, +2.02826427058E-003
+5.08504398827E+008, +6.10306604339E-005, +2.03857771482E-003
+5.11143695015E+008, +6.07454125110E-005, +2.05003225530E-003
+5.13782991202E+008, +6.39862721397E-005, +2.05837231792E-003
+5.16422287390E+008, +6.35411038633E-005, +2.06840915377E-003
+5.19061583578E+008, +6.29880774269E-005, +2.07746821571E-003
+5.21700879765E+008, +6.27170633683E-005, +2.08548031523E-003
+5.24340175953E+008, +6.15430922105E-005, +2.09542156243E-003
+5.26979472141E+008, +6.41112786581E-005, +2.10720247836E-003
+5.29618768328E+008, +6.08379167933E-005, +2.11785272150E-003
+5.32258064516E+008, +6.60715563604E-005, +2.12804558704E-003
+5.34897360704E+008, +6.44398855957E-005, +2.14068301456E-003
+5.37536656891E+008, +6.41672993257E-005, +2.15121650490E-003
+5.40175953079E+008, +6.47513567878E-005, +2.16038070089E-003
+5.42815249267E+008, +6.39644970403E-005, +2.17110147161E-003
+5.45454545455E+008, +6.36251774705E-005, +2.18200086571E-003
+5.48093841642E+008, +6.83189264247E-005, +2.19310993166E-003
+5.50733137830E+008, +6.63327780447E-005, +2.20727504327E-003
+5.53372434018E+008, +6.78202618757E-005, +2.21451671935E-003
+5.56011730205E+008, +6.81994332108E-005, +2.22756355603E-003
+5.58651026393E+008, +7.01038477759E-005, +2.24033494968E-003
+5.61290322581E+008, +6.76204191917E-005, +2.25070885974E-003
+5.63929618768E+008, +6.52572842661E-005, +2.26281498098E-003
+5.66568914956E+008, +6.91715094669E-005, +2.27573673986E-003
+5.69208211144E+008, +6.74905090982E-005, +2.28330935030E-003
+5.71847507331E+008, +6.80849865827E-005, +2.29500337518E-003
+5.74486803519E+008, +6.85252085110E-005, +2.30732865666E-003
+5.77126099707E+008, +6.77211764401E-005, +2.32031651129E-003
+5.79765395894E+008, +6.46007066664E-005, +2.33388954747E-003
+5.82404692082E+008, +6.56587124223E-005, +2.34103250530E-003
+5.85043988270E+008, +6.67792222062E-005, +2.35370740600E-003
+5.87683284457E+008, +6.28424914280E-005, +2.36211699146E-003
+5.90322580645E+008, +6.62188821084E-005, +2.37472513136E-003
+5.92961876833E+008, +6.43177409773E-005, +2.38509814597E-003
+5.95601173021E+008, +5.92810617773E-005, +2.39478087829E-003
+5.98240469208E+008, +6.22622665385E-005, +2.41039970398E-003
+6.00879765396E+008, +6.23525016481E-005, +2.42103864988E-003
+6.03519061584E+008, +5.75910613263E-005, +2.42908298856E-003
+6.06158357771E+008, +5.69870548961E-005, +2.43991615015E-003
+6.08797653959E+008, +6.12595023976E-005, +2.45104698970E-003
+6.11436950147E+008, +5.47661338538E-005, +2.45919111927E-003
+6.14076246334E+008, +5.86483351860E-005, +2.46818801714E-003
+6.16715542522E+008, +5.40195311027E-005, +2.47822931535E-003
+6.19354838710E+008, +5.15152674817E-005, +2.48744665688E-003
+6.21994134897E+008, +5.31181152767E-005, +2.49565718823E-003
+6.24633431085E+008, +4.82581838847E-005, +2.50803400062E-003
+6.27272727273E+008, +5.13072645053E-005, +2.51509684436E-003
+6.29912023460E+008, +5.08004250383E-005, +2.52491021759E-003
+6.32551319648E+008, +4.59408282651E-005, +2.53219927328E-003
+6.35190615836E+008, +5.15909240163E-005, +2.54434156844E-003
+6.37829912023E+008, +4.69203579229E-005, +2.55532839824E-003
+6.40469208211E+008, +5.16199965155E-005, +2.56778217289E-003
+6.43108504399E+008, +4.71174465965E-005, +2.57292527814E-003
+6.45747800587E+008, +4.70017327765E-005, +2.58085671445E-003
+6.48387096774E+008, +4.68671981641E-005, +2.59298560187E-003
+6.51026392962E+008, +5.21867552882E-005, +2.59960301421E-003
+6.53665689150E+008, +5.36400565728E-005, +2.60840475150E-003
+6.56304985337E+008, +5.13563397562E-005, +2.61739581264E-003
+6.58944281525E+008, +5.00362317886E-005, +2.62811785744E-003
+6.61583577713E+008, +5.31487919461E-005, +2.64258387042E-003
+6.64222873900E+008, +5.13410196628E-005, +2.65263315090E-003
+6.66862170088E+008, +5.26536864848E-005, +2.66093517081E-003
+6.69501466276E+008, +5.12536053722E-005, +2.67174999899E-003
+6.72140762463E+008, +5.35912108837E-005, +2.68422352080E-003
+6.74780058651E+008, +5.26268546217E-005, +2.69695196617E-003
+6.77419354839E+008, +5.14113844852E-005, +2.70187416589E-003
+6.80058651026E+008, +5.33302282957E-005, +2.71384255308E-003
+6.82697947214E+008, +5.41638021443E-005, +2.72383231510E-003
+6.85337243402E+008, +5.48327426827E-005, +2.73709027055E-003
+6.87976539589E+008, +5.47001658458E-005, +2.74195296932E-003
+6.90615835777E+008, +5.79450884149E-005, +2.75882348658E-003
+6.93255131965E+008, +5.65709541042E-005, +2.76825887755E-003
+6.95894428152E+008, +5.48466943823E-005, +2.77810591156E-003
+6.98533724340E+008, +4.95685167065E-005, +2.79355027718E-003
+7.01173020528E+008, +5.33089508341E-005, +2.80207646485E-003
+7.03812316716E+008, +5.31533528362E-005, +2.80826963546E-003
+7.06451612903E+008, +5.25661697154E-005, +2.82396794248E-003
+7.09090909091E+008, +5.46794663010E-005, +2.83381396791E-003
+7.11730205279E+008, +5.11890628888E-005, +2.84447255281E-003
+7.14369501466E+008, +5.46942701595E-005, +2.85385417374E-003
+7.17008797654E+008, +5.59049888177E-005, +2.86761349051E-003
+7.19648093842E+008, +5.54287538949E-005, +2.87420369650E-003
+7.22287390029E+008, +5.35967147492E-005, +2.88981774072E-003
+7.24926686217E+008, +5.03206486704E-005, +2.90198597037E-003
+7.27565982405E+008, +5.13746112683E-005, +2.91261701653E-003
+7.30205278592E+008, +4.69191633623E-005, +2.92059295699E-003
+7.32844574780E+008, +5.08851352904E-005, +2.93299397991E-003
+7.35483870968E+008, +4.15057711479E-005, +2.94126468147E-003
+7.38123167155E+008, +4.61133766643E-005, +2.95209038206E-003
+7.40762463343E+008, +4.37603304597E-005, +2.96365976142E-003
+7.43401759531E+008, +4.30180520097E-005, +2.97049028258E-003
+7.46041055718E+008, +4.53446524028E-005, +2.98251434937E-003
+7.48680351906E+008, +4.30175730702E-005, +2.98634110737E-003
+7.51319648094E+008, +4.51820987752E-005, +2.99866055848E-003
+7.53958944282E+008, +4.49395022362E-005, +3.01013673077E-003
+7.56598240469E+008, +4.36317753092E-005, +3.01980038086E-003
+7.59237536657E+008, +4.36668901113E-005, +3.03064887139E-003
+7.61876832845E+008, +4.54319797094E-005, +3.04261107708E-003
+7.64516129032E+008, +4.42195834414E-005, +3.05026532118E-003
+7.67155425220E+008, +3.84693682749E-005, +3.06288518250E-003
+7.69794721408E+008, +4.36346791808E-005, +3.06927958600E-003
+7.72434017595E+008, +4.39750051149E-005, +3.08398145336E-003
+7.75073313783E+008, +4.28031164546E-005, +3.09085410043E-003
+7.77712609971E+008, +4.05880611001E-005, +3.10153929365E-003
+7.80351906158E+008, +4.14151988824E-005, +3.11083031329E-003
+7.82991202346E+008, +4.13281314272E-005, +3.12044131513E-003
+7.85630498534E+008, +4.09003763121E-005, +3.12832878104E-003
+7.88269794721E+008, +4.49890903447E-005, +3.13991877908E-003
+7.90909090909E+008, +4.73400586532E-005, +3.15100093586E-003
+7.93548387097E+008, +4.79623426576E-005, +3.16294553863E-003
+7.96187683284E+008, +4.54573667676E-005, +3.17230886883E-003
+7.98826979472E+008, +4.50318957096E-005, +3.18458012278E-003
+8.01466275660E+008, +4.59641298288E-005, +3.19257202550E-003
+8.04105571848E+008, +4.69898992459E-005, +3.20646440400E-003
+8.06744868035E+008, +4.79509164099E-005, +3.21794735518E-003
+8.09384164223E+008, +4.79709519750E-005, +3.22913534316E-003
+8.12023460411E+008, +4.89650716083E-005, +3.23941762963E-003
+8.14662756598E+008, +5.01902995176E-005, +3.25425423913E-003
+8.17302052786E+008, +5.16718384405E-005, +3.26452328472E-003
+8.19941348974E+008, +5.01691080792E-005, +3.27546913634E-003
+8.22580645161E+008, +4.98159501215E-005, +3.28992129111E-003
+8.25219941349E+008, +4.93317508790E-005, +3.29918971815E-003
+8.27859237537E+008, +4.85591935021E-005, +3.31431976483E-003
+8.30498533724E+008, +5.19350997032E-005, +3.32317552580E-003
+8.33137829912E+008, +5.61255403745E-005, +3.33673127517E-003
+8.35777126100E+008, +5.33792496321E-005, +3.34851511862E-003
+8.38416422287E+008, +4.91709934116E-005, +3.35854080330E-003
+8.41055718475E+008, +5.40368875468E-005, +3.37164690576E-003
+8.43695014663E+008, +4.71451674737E-005, +3.38487137732E-003
+8.46334310850E+008, +4.90523939985E-005, +3.39703005564E-003
+8.48973607038E+008, +5.21633346134E-005, +3.40588526552E-003
+8.51612903226E+008, +4.72882085764E-005, +3.41814138846E-003
+8.54252199413E+008, +4.58787656539E-005, +3.42902507182E-003
+8.56891495601E+008, +4.61825952641E-005, +3.44021925266E-003
+8.59530791789E+008, +4.50699194145E-005, +3.45415887712E-003
+8.62170087977E+008, +4.44213391212E-005, +3.45979669957E-003
+8.64809384164E+008, +4.45717417836E-005, +3.47349017146E-003
+8.67448680352E+008, +4.02572598258E-005, +3.48385240407E-003
+8.70087976540E+008, +4.21899228451E-005, +3.49610005863E-003
+8.72727272727E+008, +3.69872714354E-005, +3.50348986427E-003
+8.75366568915E+008, +3.85466915375E-005, +3.51690864665E-003
+8.78005865103E+008, +3.46313901431E-005, +3.52440976449E-003
+8.80645161290E+008, +3.85453507515E-005, +3.53237711121E-003
+8.83284457478E+008, +2.88689658066E-005, +3.54097112518E-003
+8.85923753666E+008, +3.75217927241E-005, +3.54787210701E-003
+8.88563049853E+008, +3.62107834465E-005, +3.55934609477E-003
+8.91202346041E+008, +3.40450768791E-005, +3.56875359321E-003
+8.93841642229E+008, +3.12862378645E-005, +3.57325110646E-003
+8.96480938416E+008, +3.57905660816E-005, +3.58389855155E-003
+8.99120234604E+008, +3.56693803751E-005, +3.59028631585E-003
+9.01759530792E+008, +3.60903727887E-005, +3.60133095542E-003
+9.04398826979E+008, +3.60619572377E-005, +3.61158887504E-003
+9.07038123167E+008, +3.77399465185E-005, +3.61594332511E-003
+9.09677419355E+008, +3.86796824262E-005, +3.62511295301E-003
+9.12316715543E+008, +4.05602806147E-005, +3.64012813853E-003
+9.14956011730E+008, +3.98934035232E-005, +3.64873669489E-003
+9.17595307918E+008, +3.79568552918E-005, +3.66173893255E-003
+9.20234604106E+008, +5.00423400204E-005, +3.66935715406E-003
+9.22873900293E+008, +4.58479513601E-005, +3.68213027027E-003
+9.25513196481E+008, +4.34908233682E-005, +3.69536035893E-003
+9.28152492669E+008, +4.42484771272E-005, +3.70464977081E-003
+9.30791788856E+008, +4.79183069424E-005, +3.71225803648E-003
+9.33431085044E+008, +4.18998540510E-005, +3.72682738418E-003
+9.36070381232E+008, +4.73023994500E-005, +3.74035918964E-003
+9.38709677419E+008, +5.10646411626E-005, +3.74864122157E-003
+9.41348973607E+008, +4.87145103161E-005, +3.75870750134E-003
+9.43988269795E+008, +4.90675828771E-005, +3.77422125987E-003
+9.46627565982E+008, +5.27678566513E-005, +3.78548976190E-003
+9.49266862170E+008, +4.90528762312E-005, +3.79962734860E-003
+9.51906158358E+008, +5.26315901962E-005, +3.81466083266E-003
+9.54545454545E+008, +5.05951439943E-005, +3.82530665224E-003
+9.57184750733E+008, +5.16310501261E-005, +3.84040409610E-003
+9.59824046921E+008, +5.34968269493E-005, +3.85277237795E-003
+9.62463343109E+008, +4.89253434651E-005, +3.86767939534E-003
+9.65102639296E+008, +5.13215965659E-005, +3.87707661855E-003
+9.67741935484E+008, +5.32177914515E-005, +3.89616713425E-003
+9.70381231672E+008, +4.80583747088E-005, +3.90438651751E-003
+9.73020527859E+008, +4.57532065764E-005, +3.91807457603E-003
+9.75659824047E+008, +4.73591489311E-005, +3.93033154771E-003
+9.78299120235E+008, +3.98663833837E-005, +3.94504188145E-003
+9.80938416422E+008, +4.00380098647E-005, +3.95633335516E-003
+9.83577712610E+008, +4.32755182226E-005, +3.97204639055E-003
+9.86217008798E+008, +3.77378503936E-005, +3.97714408712E-003
+9.88856304985E+008, +3.84974950652E-005, +3.99368725616E-003
+9.91495601173E+008, +3.48225040178E-005, +4.00071427439E-003
+9.94134897361E+008, +3.48334106601E-005, +4.00977985903E-003
+9.96774193548E+008, +3.10625168636E-005, +4.02341663255E-003
+9.99413489736E+008, +3.87325207776E-005, +4.02577992666E-003
+1.00205278592E+009, +3.63167660324E-005, +4.03820013638E-003
+1.00469208211E+009, +3.79545446462E-005, +4.04431071686E-003
+1.00733137830E+009, +3.93868545222E-005, +4.05483134346E-003
+1.00997067449E+009, +3.84031688509E-005, +4.06868170321E-003
+1.01260997067E+009, +3.89149986979E-005, +4.07819656490E-003
+1.01524926686E+009, +4.10094591247E-005, +4.08408802743E-003
+1.01788856305E+009, +4.05779218055E-005, +4.09526995646E-003
+1.02052785924E+009, +4.17184402793E-005, +4.10582364307E-003
+1.02316715543E+009, +4.09636145198E-005, +4.11654923500E-003
+1.02580645161E+009, +3.73237121284E-005, +4.12803064669E-003
+1.02844574780E+009, +4.35746531387E-005, +4.14024500363E-003
+1.03108504399E+009, +4.24931653360E-005, +4.14176334926E-003
+1.03372434018E+009, +4.11887851028E-005, +4.15077589774E-003
+1.03636363636E+009, +4.36384629238E-005, +4.15952224298E-003
+1.03900293255E+009, +4.58418063732E-005, +4.17220746802E-003
+1.04164222874E+009, +5.07154044200E-005, +4.18021257529E-003
+1.04428152493E+009, +4.70996133100E-005, +4.19435945721E-003
+1.04692082111E+009, +5.00128503703E-005, +4.20154510891E-003
+1.04956011730E+009, +5.12684341628E-005, +4.21444977385E-003
+1.05219941349E+009, +5.24446645781E-005, +4.22054791073E-003
+1.05483870968E+009, +5.17537189728E-005, +4.23778503165E-003
+1.05747800587E+009, +5.42512536147E-005, +4.24788429366E-003
+1.06011730205E+009, +5.74189893780E-005, +4.26006528395E-003
+1.06275659824E+009, +5.95668876029E-005, +4.27506415836E-003
+1.06539589443E+009, +5.70272421079E-005, +4.28949105868E-003
+1.06803519062E+009, +5.75969015263E-005, +4.30398704414E-003
+1.07067448680E+009, +5.82617177627E-005, +4.31733435075E-003
+1.07331378299E+009, +5.61181900098E-005, +4.33157873868E-003
+1.07595307918E+009, +5.09226042547E-005, +4.34224984139E-003
+1.07859237537E+009, +5.29011027193E-005, +4.35802678655E-003
+1.08123167155E+009, +5.23381816004E-005, +4.37098538862E-003
+1.08387096774E+009, +5.25246322447E-005, +4.38878377307E-003
+1.08651026393E+009, +5.30868195683E-005, +4.40029746309E-003
+1.08914956012E+009, +5.01932486347E-005, +4.41493910510E-003
+1.09178885630E+009, +4.63470681154E-005, +4.42321069791E-003
+1.09442815249E+009, +4.90479982157E-005, +4.43861974315E-003
+1.09706744868E+009, +4.72441272459E-005, +4.44870307647E-003
+1.09970674487E+009, +4.53396044434E-005, +4.46444710613E-003
+1.10234604106E+009, +4.89000569694E-005, +4.47013430982E-003
+1.10498533724E+009, +4.60148916906E-005, +4.48416040667E-003
+1.10762463343E+009, +4.49986978160E-005, +4.49533850693E-003
+1.11026392962E+009, +4.57001183010E-005, +4.50638803418E-003
+1.11290322581E+009, +4.51094826527E-005, +4.51772032092E-003
+1.11554252199E+009, +4.65641297209E-005, +4.52878726652E-003
+1.11818181818E+009, +4.55828695048E-005, +4.54384098984E-003
+1.12082111437E+009, +4.30008311730E-005, +4.54915540873E-003
+1.12346041056E+009, +4.15334192048E-005, +4.56431450761E-003
+1.12609970674E+009, +4.13665939008E-005, +4.57216281971E-003
+1.12873900293E+009, +3.95318645845E-005, +4.58561463898E-003
+1.13137829912E+009, +4.20416218112E-005, +4.59059222082E-003
+1.13401759531E+009, +4.00539915944E-005, +4.60127452936E-003
+1.13665689150E+009, +4.55050134102E-005, +4.60719585120E-003
+1.13929618768E+009, +4.43282429268E-005, +4.61511372701E-003
+1.14193548387E+009, +4.62200527141E-005, +4.62536585331E-003
+1.14457478006E+009, +4.32071524668E-005, +4.63518163102E-003
