!Agilent Technologies,E5071C,MY46101273,A.11.02
!Date: Sat Sep 30 16:11:06 2017
!Data & Calibration Information:
!Freq	S11:SOLT2(ON)	S21:SOLT2(ON)	S12:SOLT2(ON)	S22:SOLT2(ON)
!PortZ  Port1:50+j0    Port2:50+j0
!Above PortZ is port z conversion or system Z0 setting when saving the data.
!When reading, reference impedance value at option line is always used.
# Hz S RI R 50
1000000	-9.992191e-001	2.344846e-003	1.674911e-004	6.154592e-005	-2.244896e-004	-1.759632e-004	1.001776e+000	-1.406370e-003
3811875	-9.991412e-001	5.895431e-003	-2.025176e-004	-6.126089e-004	-3.868909e-004	8.202921e-005	9.979336e-001	-1.856319e-003
6623750	-9.978432e-001	7.789985e-003	1.271847e-004	1.532767e-004	8.693480e-005	-5.796276e-005	9.983366e-001	7.123766e-003
9435625	-9.977671e-001	9.354394e-003	-1.344368e-005	-4.841568e-005	8.346002e-006	5.645270e-005	1.001078e+000	3.396511e-003
12247500	-9.988076e-001	9.820992e-003	-9.822999e-006	-2.316841e-005	-3.841510e-006	-2.873603e-005	1.000724e+000	2.004954e-003
15059375	-9.989647e-001	1.061110e-002	-4.338996e-005	-2.707832e-006	1.409881e-005	2.609298e-006	9.994319e-001	1.559189e-003
17871250	-9.995590e-001	1.127566e-002	2.976592e-005	1.509242e-006	-3.763928e-005	2.315195e-006	9.990244e-001	4.283882e-004
20683125	-9.999740e-001	1.159405e-002	-4.979096e-005	-6.189536e-005	1.465905e-005	-2.842936e-005	9.997765e-001	-9.849780e-004
23495000	-9.991369e-001	1.311083e-002	1.034272e-005	-2.904811e-005	3.518199e-005	2.731211e-005	1.000665e+000	-9.096594e-004
26306875	-9.989140e-001	1.496246e-002	2.397971e-005	1.507166e-005	-3.122319e-005	-2.254601e-005	1.001496e+000	-8.680411e-004
29118750	-9.988336e-001	1.700555e-002	3.265571e-005	1.111832e-004	-8.188188e-005	4.848786e-005	1.000913e+000	-1.035477e-003
31930625	-9.988125e-001	1.885138e-002	-1.194344e-005	-2.204939e-005	-1.298422e-005	1.220656e-005	1.000221e+000	-1.850100e-003
34742500	-9.982164e-001	2.026314e-002	1.617127e-005	-4.563394e-005	-4.116412e-005	-4.085948e-005	9.991021e-001	-2.305077e-003
37554375	-9.981896e-001	2.175959e-002	2.762053e-005	-3.975790e-005	-4.415319e-005	4.030584e-005	1.000033e+000	-2.246329e-003
40366250	-9.981978e-001	2.285178e-002	4.572618e-007	-3.160474e-005	-2.728755e-005	2.923720e-005	9.998130e-001	-2.240363e-003
43178125	-9.981498e-001	2.384510e-002	-4.248858e-005	2.467251e-005	2.764468e-005	-2.958649e-005	9.999674e-001	-2.638332e-003
45990000	-9.982063e-001	2.564418e-002	-4.124524e-005	4.397366e-005	-4.736031e-006	3.936204e-005	9.994137e-001	-2.588687e-003
48801875	-9.981866e-001	2.740375e-002	-2.217332e-005	1.234267e-005	-8.602502e-006	2.377405e-005	9.989135e-001	-2.760504e-003
51613750	-9.980480e-001	2.861888e-002	-2.831604e-005	-1.712425e-005	-3.101079e-005	3.576241e-005	9.990819e-001	-3.020923e-003
54425625	-9.981524e-001	3.013978e-002	-6.074910e-005	3.070285e-005	3.556710e-006	3.643839e-005	9.991349e-001	-3.417740e-003
57237500	-9.980924e-001	3.195435e-002	2.040250e-005	-4.214488e-005	-1.533167e-005	1.070474e-005	9.992930e-001	-3.673067e-003
60049375	-9.980433e-001	3.322047e-002	-5.639347e-005	-5.350068e-005	-4.034528e-005	3.799598e-005	9.995985e-001	-3.954103e-003
62861250	-9.979667e-001	3.442972e-002	-4.752661e-006	1.309143e-005	-4.146373e-006	1.931689e-005	9.987495e-001	-4.071153e-003
65673125	-9.977235e-001	3.541147e-002	-7.826926e-006	5.956717e-005	-5.529756e-005	-7.733843e-005	1.000219e+000	-4.145842e-003
68485000	-9.971122e-001	3.726040e-002	-5.631539e-005	-2.887241e-005	4.814265e-005	2.896858e-005	9.997668e-001	-3.572398e-003
71296875	-9.972347e-001	3.855998e-002	-1.541696e-005	6.742595e-005	1.544157e-005	3.313042e-005	1.000207e+000	-3.864277e-003
74108750	-9.969479e-001	3.957388e-002	-6.408794e-006	3.009631e-005	3.839205e-005	4.558455e-005	1.000364e+000	-4.223584e-003
76920625	-9.966312e-001	4.123018e-002	4.561059e-005	3.779904e-005	-1.884672e-005	1.227782e-005	1.000286e+000	-4.621788e-003
79732500	-9.966618e-001	4.306648e-002	-1.521423e-005	-1.193198e-005	-6.948745e-005	6.716313e-006	1.000260e+000	-4.553807e-003
82544375	-9.964200e-001	4.453055e-002	-3.924125e-005	3.973022e-005	4.284918e-005	-1.298870e-005	9.997072e-001	-4.433000e-003
85356250	-9.964853e-001	4.562548e-002	5.609046e-005	-1.266495e-005	6.522002e-006	-2.415174e-005	9.998350e-001	-4.633063e-003
88168125	-9.963311e-001	4.669260e-002	1.086671e-005	-7.295654e-005	-2.760722e-005	-2.260431e-005	1.000310e+000	-5.357863e-003
90980000	-9.958930e-001	4.817928e-002	-4.592587e-005	9.027229e-005	-9.859691e-005	3.362728e-005	1.000181e+000	-5.573835e-003
93791875	-9.951460e-001	4.943504e-002	1.232564e-005	2.036990e-005	-2.033253e-005	6.883793e-005	9.998812e-001	-5.273021e-003
96603750	-9.945475e-001	5.132112e-002	2.890364e-005	-9.479541e-006	-1.725074e-005	-9.609044e-006	1.000191e+000	-5.515138e-003
99415625	-9.950474e-001	5.258488e-002	-3.685286e-006	-2.055025e-005	-1.962267e-005	-7.567856e-005	1.000383e+000	-5.741305e-003
102227500	-9.947772e-001	5.461145e-002	2.045253e-005	2.492665e-005	3.594863e-005	-2.824055e-006	9.998966e-001	-5.725676e-003
105039375	-9.953574e-001	5.574003e-002	-4.260917e-005	-1.084626e-005	-1.880969e-006	-6.057428e-006	9.998819e-001	-5.859125e-003
107851250	-9.954642e-001	5.641881e-002	1.549665e-005	-1.590713e-005	-4.498756e-005	-1.183604e-005	1.000369e+000	-6.242045e-003
110663125	-9.949941e-001	5.792417e-002	-3.928682e-006	-3.390399e-005	7.897843e-006	1.841962e-005	1.000272e+000	-6.421645e-003
113475000	-9.953007e-001	6.005197e-002	-3.508886e-005	6.175938e-006	3.481915e-005	2.744952e-005	9.994760e-001	-6.141717e-003
116286875	-9.950193e-001	6.137725e-002	-3.235885e-005	8.623548e-005	1.270273e-005	3.449078e-005	9.999642e-001	-6.353948e-003
119098750	-9.953205e-001	6.276513e-002	-5.132998e-005	-1.188295e-005	-1.209466e-005	5.285204e-005	9.999364e-001	-6.449118e-003
121910625	-9.952667e-001	6.393611e-002	-2.023795e-005	-2.651867e-005	5.593130e-005	-6.232301e-006	1.000034e+000	-6.456281e-003
124722500	-9.947474e-001	6.518671e-002	4.019886e-006	2.498653e-005	3.256934e-005	7.365789e-005	9.998002e-001	-6.529770e-003
127534375	-9.949740e-001	6.658747e-002	-7.435616e-005	5.291426e-005	4.793602e-005	-1.827232e-005	9.995295e-001	-6.717478e-003
130346250	-9.944218e-001	6.788940e-002	1.865877e-005	4.108625e-005	-2.609643e-005	3.345272e-005	9.996570e-001	-6.664907e-003
133158125	-9.944926e-001	6.912224e-002	-6.597121e-005	1.622173e-005	-2.983785e-005	2.222536e-005	9.996673e-001	-6.810612e-003
135970000	-9.943571e-001	7.183181e-002	1.799108e-005	5.837336e-005	4.835519e-005	-3.461465e-005	9.998436e-001	-6.834603e-003
138781875	-9.941117e-001	7.266260e-002	-9.180283e-005	-4.304279e-005	-1.703207e-005	-5.814200e-005	9.996330e-001	-6.912877e-003
141593750	-9.938511e-001	7.453576e-002	7.026653e-005	-4.680877e-005	3.199250e-006	-2.851415e-005	9.996667e-001	-7.325370e-003
144405625	-9.939594e-001	7.602291e-002	2.730855e-005	-2.376408e-005	-2.835532e-005	-1.169925e-005	9.998089e-001	-7.333505e-003
147217500	-9.937068e-001	7.804073e-002	4.713533e-005	5.772239e-005	-2.681565e-005	-1.460686e-005	9.999774e-001	-7.509682e-003
150029375	-9.936080e-001	7.954341e-002	-2.062322e-006	5.866094e-006	-2.774456e-005	2.101015e-005	1.000157e+000	-7.581103e-003
152841250	-9.935488e-001	8.055136e-002	-3.776053e-005	3.209834e-005	-1.578869e-005	7.516890e-006	1.000407e+000	-7.758516e-003
155653125	-9.934592e-001	8.192915e-002	2.930192e-005	-3.203710e-005	-2.076739e-005	-6.941580e-006	1.000216e+000	-7.985692e-003
158465000	-9.931171e-001	8.289539e-002	1.665178e-006	-3.337675e-005	-1.385013e-005	-5.707759e-005	9.999473e-001	-7.954244e-003
161276875	-9.933306e-001	8.430322e-002	-6.021206e-006	2.704027e-005	4.002790e-005	1.280445e-005	9.999529e-001	-8.330042e-003
164088750	-9.931806e-001	8.657043e-002	-5.051261e-005	1.306388e-005	5.127299e-006	-4.655070e-005	1.000041e+000	-8.440602e-003
166900625	-9.926338e-001	8.804078e-002	-7.628491e-006	-3.907259e-005	-8.060953e-005	-6.705348e-005	1.000839e+000	-7.999327e-003
169712500	-9.929721e-001	8.932215e-002	-1.490397e-005	4.642054e-006	-1.982302e-006	1.761442e-005	9.998676e-001	-8.783551e-003
172524375	-9.924851e-001	9.008938e-002	1.834650e-006	-3.815903e-005	-1.054290e-007	2.169770e-005	9.992777e-001	-9.484040e-003
175336250	-9.921995e-001	9.180270e-002	-3.052184e-005	-1.011316e-005	-2.441529e-006	-1.230268e-004	9.998676e-001	-8.696521e-003
178148125	-9.920842e-001	9.276139e-002	2.552457e-007	7.939776e-005	5.594152e-006	-7.669281e-005	9.998882e-001	-8.881601e-003
180960000	-9.917052e-001	9.458122e-002	-2.443450e-005	-1.121489e-005	3.760027e-005	5.731944e-005	9.987583e-001	-9.871769e-003
183771875	-9.918046e-001	9.617775e-002	-1.009475e-005	1.397154e-005	-6.535981e-006	7.071121e-005	9.996192e-001	-9.574193e-003
186583750	-9.920191e-001	9.801032e-002	5.780030e-005	7.574804e-006	-1.543107e-005	3.540917e-005	9.998219e-001	-9.195382e-003
189395625	-9.920855e-001	9.963365e-002	-4.085838e-005	1.529429e-005	7.408826e-005	-2.907250e-005	9.998592e-001	-9.184807e-003
192207500	-9.917379e-001	1.007650e-001	-2.754151e-005	1.185608e-005	5.133583e-005	-1.246025e-005	9.994358e-001	-9.328965e-003
195019375	-9.917272e-001	1.014158e-001	7.153360e-006	-2.837434e-005	-9.329124e-005	-2.987824e-005	9.994286e-001	-9.568441e-003
197831250	-9.911292e-001	1.034102e-001	7.302012e-006	-1.571940e-005	-2.508089e-005	-1.847339e-005	9.995824e-001	-9.477566e-003
200643125	-9.906844e-001	1.046662e-001	4.006406e-005	1.364433e-005	7.047108e-005	3.658213e-005	9.990932e-001	-1.045499e-002
203455000	-9.902037e-001	1.063913e-001	-6.744404e-005	5.002320e-006	1.959643e-005	-7.060654e-006	9.996593e-001	-1.005077e-002
206266875	-9.908660e-001	1.080295e-001	-3.303484e-005	-6.995976e-005	-6.326601e-005	5.296058e-006	1.000008e+000	-1.012305e-002
209078750	-9.906248e-001	1.096698e-001	-3.890037e-005	-2.887035e-005	-3.458371e-005	-3.534755e-005	1.000337e+000	-9.336565e-003
211890625	-9.909483e-001	1.114970e-001	8.370821e-005	3.254282e-005	5.258928e-005	-2.592457e-005	1.000899e+000	-8.590847e-003
214702500	-9.902848e-001	1.124047e-001	1.907792e-005	1.067254e-005	-1.292075e-005	-3.124364e-005	1.000373e+000	-1.078565e-002
217514375	-9.903097e-001	1.138772e-001	-8.473288e-006	-1.465265e-006	-8.986991e-005	-3.893800e-005	9.999686e-001	-1.035323e-002
220326250	-9.898698e-001	1.150953e-001	-1.418790e-005	-1.305566e-005	-9.345566e-006	1.991254e-005	9.998326e-001	-1.107684e-002
223138125	-9.894321e-001	1.161534e-001	-7.336715e-005	3.059873e-005	2.129642e-005	3.448753e-005	9.994682e-001	-1.148265e-002
225950000	-9.894245e-001	1.177973e-001	-3.506516e-005	-4.230577e-005	4.785977e-005	2.968390e-006	1.000389e+000	-1.006786e-002
228761875	-9.891402e-001	1.193052e-001	1.727758e-005	6.939303e-005	-3.362686e-005	1.981385e-006	1.000132e+000	-1.031309e-002
231573750	-9.892662e-001	1.209697e-001	-3.235840e-006	5.338702e-005	2.362856e-005	-1.563169e-006	1.000277e+000	-9.716287e-003
234385625	-9.886253e-001	1.224446e-001	-2.178232e-005	-2.025827e-005	-5.472671e-005	1.757848e-005	1.000379e+000	-9.827571e-003
237197500	-9.885423e-001	1.239364e-001	2.408760e-005	-2.325861e-005	1.448328e-005	1.234006e-006	9.998095e-001	-1.069605e-002
240009375	-9.882728e-001	1.250147e-001	-1.550289e-005	6.698098e-006	1.964947e-005	-2.016009e-005	9.996253e-001	-1.152252e-002
242821250	-9.878976e-001	1.266100e-001	-1.388109e-005	-5.993222e-005	2.290304e-006	-5.392721e-005	9.997364e-001	-1.226434e-002
245633125	-9.875438e-001	1.278682e-001	1.014709e-004	3.034961e-005	-2.513259e-005	3.818548e-005	9.995652e-001	-1.231266e-002
248445000	-9.873999e-001	1.292275e-001	3.877362e-006	2.279400e-005	-7.140873e-005	9.616819e-006	1.000044e+000	-1.249487e-002
251256875	-9.873057e-001	1.309361e-001	-1.643776e-005	4.267339e-005	5.337824e-005	-2.239820e-005	1.000216e+000	-1.228502e-002
254068750	-9.873365e-001	1.323908e-001	-3.984889e-005	-4.397611e-005	-9.253638e-006	-5.118558e-005	9.999779e-001	-1.268389e-002
256880625	-9.869994e-001	1.340072e-001	1.007702e-005	-1.720220e-005	-8.660890e-005	2.728022e-005	9.996642e-001	-1.369813e-002
259692500	-9.866814e-001	1.351642e-001	-5.718131e-005	1.760812e-005	3.536370e-005	3.220160e-005	9.994812e-001	-1.418382e-002
262504375	-9.865492e-001	1.366403e-001	1.704727e-005	9.236085e-005	-1.299496e-005	1.923155e-005	9.998660e-001	-1.426334e-002
265316250	-9.863343e-001	1.379224e-001	6.122685e-006	1.947994e-005	-1.988200e-005	1.103227e-005	9.996809e-001	-1.443338e-002
268128125	-9.862596e-001	1.391948e-001	-3.711238e-005	-9.977094e-005	-1.953548e-005	-2.769733e-005	1.000318e+000	-1.422930e-002
270940000	-9.857937e-001	1.404879e-001	1.450550e-005	-4.813526e-006	1.945788e-005	2.207898e-005	9.998232e-001	-1.462652e-002
273751875	-9.856776e-001	1.419001e-001	-2.233533e-005	7.774226e-005	1.744357e-005	6.088023e-005	1.000190e+000	-1.526664e-002
276563750	-9.855061e-001	1.435778e-001	-4.084242e-005	9.884222e-006	-3.416806e-005	4.179871e-006	9.991249e-001	-1.559103e-002
279375625	-9.849264e-001	1.449168e-001	-1.426559e-005	2.129336e-005	-8.802011e-006	7.950504e-005	9.987203e-001	-1.584862e-002
282187500	-9.846257e-001	1.463560e-001	4.440503e-005	-2.312359e-005	2.670048e-005	-2.164745e-005	9.988406e-001	-1.503479e-002
284999375	-9.840684e-001	1.481705e-001	-2.836468e-005	-1.362294e-005	-3.765146e-005	1.945229e-005	9.985007e-001	-1.371651e-002
287811250	-9.842857e-001	1.492480e-001	-3.865399e-006	-9.075101e-007	3.258453e-005	2.831165e-005	9.992963e-001	-1.421597e-002
290623125	-9.843544e-001	1.506026e-001	4.537317e-005	-2.193400e-005	3.887300e-006	-9.432843e-006	9.990083e-001	-1.558445e-002
293435000	-9.834960e-001	1.519363e-001	5.121928e-005	-6.550256e-006	2.797605e-005	-5.438961e-006	9.993633e-001	-1.480097e-002
296246875	-9.838004e-001	1.536500e-001	5.990158e-005	-3.802521e-005	8.178187e-005	4.356841e-005	9.994248e-001	-1.399081e-002
299058750	-9.838804e-001	1.552079e-001	5.897822e-005	5.664483e-005	3.459345e-005	4.687797e-005	9.997136e-001	-1.437510e-002
301870625	-9.833952e-001	1.563166e-001	1.110073e-007	2.784748e-006	-5.544861e-005	-1.222486e-005	9.998226e-001	-1.533960e-002
304682500	-9.830125e-001	1.577367e-001	-6.795362e-007	1.112256e-005	3.502205e-005	-6.411900e-006	9.990813e-001	-1.470603e-002
307494375	-9.829627e-001	1.592638e-001	4.236546e-005	-1.861602e-005	-1.890870e-005	2.897860e-005	9.992007e-001	-1.465440e-002
310306250	-9.827311e-001	1.607033e-001	2.660886e-005	4.126042e-005	-3.591889e-006	2.399009e-005	9.992306e-001	-1.624581e-002
313118125	-9.825029e-001	1.618176e-001	-1.350806e-005	1.277944e-005	-4.835045e-005	-2.987411e-005	9.995284e-001	-1.656835e-002
315930000	-9.821584e-001	1.636761e-001	9.602459e-005	-3.423096e-005	-3.323063e-006	5.275943e-005	9.986430e-001	-1.493296e-002
318741875	-9.815175e-001	1.649301e-001	2.281968e-005	-2.180031e-005	-2.381153e-005	-3.233485e-005	9.988564e-001	-1.430404e-002
321553750	-9.815432e-001	1.659514e-001	1.804428e-005	-3.831030e-005	-1.154667e-004	-1.613747e-005	9.995567e-001	-1.678521e-002
324365625	-9.811937e-001	1.674327e-001	-1.152890e-005	4.530103e-006	-3.229858e-005	3.861027e-005	9.997796e-001	-1.690377e-002
327177500	-9.807857e-001	1.689756e-001	1.116057e-004	5.180028e-005	-1.230448e-005	-2.885529e-005	9.984687e-001	-1.546261e-002
329989375	-9.812411e-001	1.702022e-001	-2.572624e-005	-2.922284e-005	-1.340623e-005	-8.994101e-005	9.992835e-001	-1.676806e-002
332801250	-9.817685e-001	1.712346e-001	-3.083070e-005	2.914937e-005	1.867584e-005	1.189409e-005	1.000263e+000	-1.919880e-002
335613125	-9.804568e-001	1.731209e-001	8.186119e-005	4.573058e-005	-4.155997e-005	9.127970e-006	9.994354e-001	-1.810843e-002
338425000	-9.800962e-001	1.751434e-001	8.311710e-006	-9.185812e-006	-3.759382e-005	-3.980607e-006	9.997347e-001	-1.789860e-002
341236875	-9.807574e-001	1.758474e-001	-6.812240e-005	-8.705014e-005	3.485245e-005	3.589219e-005	1.000358e+000	-1.921593e-002
344048750	-9.803602e-001	1.774391e-001	9.987971e-006	-5.247134e-005	-3.541292e-005	5.988624e-005	1.000170e+000	-1.951270e-002
346860625	-9.795606e-001	1.797801e-001	4.563683e-005	-1.785040e-005	-1.483232e-005	-1.400806e-005	9.996436e-001	-1.830054e-002
349672500	-9.795234e-001	1.809847e-001	1.371196e-005	1.120011e-005	4.710636e-007	-2.329673e-005	1.000569e+000	-1.909918e-002
352484375	-9.792952e-001	1.824491e-001	-1.589683e-005	-3.231209e-005	-1.946177e-005	-4.380756e-005	9.999445e-001	-1.896467e-002
355296250	-9.779857e-001	1.840712e-001	-5.000575e-006	-4.329623e-005	5.061854e-006	-3.774191e-006	9.989923e-001	-1.812212e-002
358108125	-9.775265e-001	1.852051e-001	4.981279e-005	5.302021e-005	-6.946496e-005	9.563278e-006	9.993439e-001	-1.831098e-002
360920000	-9.777072e-001	1.862694e-001	1.767501e-005	-1.341241e-005	9.596144e-006	2.902022e-005	9.993520e-001	-1.865614e-002
363731875	-9.773710e-001	1.872502e-001	1.696227e-005	-2.517823e-005	-2.588903e-006	-2.994384e-005	9.990428e-001	-1.868109e-002
366543750	-9.773994e-001	1.886368e-001	-2.313757e-005	6.740271e-005	3.030304e-005	2.258041e-005	9.993733e-001	-1.892743e-002
369355625	-9.770951e-001	1.905069e-001	-2.981199e-005	3.935503e-005	-1.268554e-005	-8.449560e-006	9.992857e-001	-1.930271e-002
372167500	-9.766794e-001	1.916102e-001	5.081468e-005	-2.994579e-005	5.974573e-005	-3.263803e-005	9.990887e-001	-1.899027e-002
374979375	-9.764174e-001	1.921361e-001	-3.719567e-005	-2.975885e-005	4.350774e-005	3.708844e-005	9.994521e-001	-1.936644e-002
377791250	-9.766068e-001	1.935375e-001	7.863301e-006	5.305739e-005	3.868799e-006	-1.612424e-005	9.999256e-001	-2.003829e-002
380603125	-9.755605e-001	1.962917e-001	-9.672707e-006	1.098060e-005	5.501003e-005	-2.899635e-005	9.991506e-001	-1.982418e-002
383415000	-9.750093e-001	1.979322e-001	-3.150067e-005	-6.625512e-005	-1.025244e-004	-2.033547e-005	9.989552e-001	-2.012966e-002
386226875	-9.746735e-001	1.996045e-001	3.510590e-005	-6.590145e-005	4.234103e-005	-2.908359e-005	9.991827e-001	-2.016192e-002
389038750	-9.743546e-001	2.018765e-001	3.349316e-005	-3.174078e-005	-2.158789e-005	7.758327e-006	9.993969e-001	-2.028079e-002
391850625	-9.743544e-001	2.023403e-001	-2.258887e-005	2.092062e-005	-2.984473e-005	-1.872669e-005	9.994925e-001	-2.040457e-002
394662500	-9.739220e-001	2.044253e-001	1.798767e-005	-4.072696e-005	-1.293715e-005	-4.417233e-005	9.992045e-001	-2.051757e-002
397474375	-9.734692e-001	2.056758e-001	3.990998e-005	-6.651068e-006	-1.640630e-005	2.740806e-005	9.990709e-001	-2.051635e-002
400286250	-9.733190e-001	2.069926e-001	-1.046908e-005	-1.235987e-005	-2.520309e-005	6.408344e-005	9.990312e-001	-2.077304e-002
403098125	-9.733182e-001	2.078762e-001	-2.477411e-005	-2.629225e-006	-7.340729e-006	3.660239e-005	9.991729e-001	-2.065218e-002
405910000	-9.725446e-001	2.092590e-001	3.064048e-005	-2.301952e-005	1.956803e-005	6.399120e-006	9.990175e-001	-2.106899e-002
408721875	-9.719673e-001	2.112595e-001	-5.752423e-006	1.422424e-005	9.975520e-007	5.631413e-006	9.990665e-001	-2.123432e-002
411533750	-9.717778e-001	2.122816e-001	-5.833294e-006	2.734221e-005	-2.259554e-006	-2.843773e-005	9.992866e-001	-2.122727e-002
414345625	-9.714158e-001	2.131762e-001	4.960706e-007	4.427523e-005	3.962958e-005	1.794168e-005	9.989330e-001	-2.152922e-002
417157500	-9.714225e-001	2.147504e-001	-1.575387e-005	-5.054157e-005	-7.977698e-006	-2.965535e-005	9.991329e-001	-2.139151e-002
419969375	-9.711514e-001	2.166441e-001	1.681628e-005	-5.463877e-005	-1.544407e-006	-3.251103e-005	9.992860e-001	-2.150604e-002
422781250	-9.709586e-001	2.176513e-001	2.328862e-005	-6.099799e-005	-3.756072e-006	-4.326140e-005	9.991009e-001	-2.157170e-002
425593125	-9.708867e-001	2.188149e-001	-2.250637e-005	6.574895e-005	-5.291720e-006	8.167621e-005	9.988515e-001	-2.196389e-002
428405000	-9.703250e-001	2.204860e-001	-9.202771e-007	-6.120536e-006	-6.216106e-006	-4.622987e-005	9.986669e-001	-2.186169e-002
431216875	-9.697736e-001	2.222889e-001	-2.308892e-005	1.101845e-005	-5.152965e-005	-3.034509e-005	9.994651e-001	-2.184956e-002
434028750	-9.696313e-001	2.233266e-001	-3.080299e-005	3.693788e-005	-2.563735e-006	-9.881847e-006	9.991969e-001	-2.198435e-002
