!Agilent Technologies,E5071C,MY46101273,A.11.02
!Date: Sat Sep 30 17:42:33 2017
!Data & Calibration Information:
!Freq	S11:SOLT2(ON)	S21:SOLT2(ON)	S12:SOLT2(ON)	S22:SOLT2(ON)
!PortZ  Port1:50+j0    Port2:50+j0
!Above PortZ is port z conversion or system Z0 setting when saving the data.
!When reading, reference impedance value at option line is always used.
# Hz S dB R 50
1000000	-2.398697e+001	-8.010899e+001	-1.280729e-002	-2.305987e-001	-5.220650e-002	-8.187666e-002	-2.314530e+001	-8.494786e+001
3811875	-2.057555e+001	-9.315955e+001	-4.819849e-002	-4.545068e-001	-8.060650e-002	-4.346293e-001	-2.000046e+001	-9.493884e+001
6623750	-2.272710e+001	-1.299518e+002	-6.774390e-002	-1.652522e-001	-7.593202e-002	-3.837167e-001	-2.231368e+001	-1.313526e+002
9435625	-2.766839e+001	-1.306716e+002	-1.144004e-002	-4.471450e-001	-2.195731e-002	-6.815635e-001	-2.724949e+001	-1.322511e+002
12247500	-3.113099e+001	-1.321886e+002	7.506287e-003	-7.842156e-001	-3.038285e-002	-7.504426e-001	-3.045596e+001	-1.276217e+002
15059375	-3.449210e+001	-1.315073e+002	1.329221e-002	-1.036813e+000	-2.701009e-002	-9.676402e-001	-3.388990e+001	-1.233313e+002
17871250	-3.881529e+001	-1.360723e+002	1.209133e-002	-1.281327e+000	-2.485040e-002	-1.132315e+000	-3.821912e+001	-1.196933e+002
20683125	-4.581729e+001	-1.451265e+002	1.091075e-002	-1.530552e+000	-2.139493e-002	-1.307603e+000	-4.542980e+001	-1.085067e+002
23495000	-5.373653e+001	-6.467307e+001	3.728883e-003	-1.681597e+000	1.370868e-003	-1.680258e+000	-5.441733e+001	-6.364476e+001
26306875	-5.236014e+001	-4.925198e+001	4.203897e-003	-1.863697e+000	5.940825e-003	-1.875764e+000	-5.164287e+001	-5.434519e+001
29118750	-5.017109e+001	-5.412901e+001	2.224085e-004	-2.074093e+000	7.065244e-003	-2.082900e+000	-5.022530e+001	-5.623835e+001
31930625	-4.830563e+001	-5.983566e+001	-4.038185e-003	-2.301973e+000	-1.929108e-004	-2.295705e+000	-4.923066e+001	-6.342396e+001
34742500	-4.770984e+001	-6.593570e+001	-8.217139e-003	-2.519380e+000	-5.695939e-003	-2.508605e+000	-4.844675e+001	-7.324187e+001
37554375	-4.780087e+001	-7.294769e+001	-5.928589e-003	-2.684284e+000	-4.300319e-003	-2.698978e+000	-4.736909e+001	-6.907083e+001
40366250	-4.872125e+001	-7.257306e+001	-3.767842e-003	-2.870642e+000	-4.490142e-003	-2.874465e+000	-4.813567e+001	-8.075798e+001
43178125	-4.845181e+001	-8.216539e+001	-4.766979e-003	-3.034965e+000	-6.074624e-003	-3.069281e+000	-4.756004e+001	-7.625331e+001
45990000	-4.810483e+001	-8.606421e+001	-5.283437e-003	-3.233804e+000	-7.489238e-003	-3.260260e+000	-4.773652e+001	-8.361768e+001
48801875	-4.772172e+001	-8.870648e+001	-1.043953e-002	-3.428940e+000	-8.985653e-003	-3.467817e+000	-4.630138e+001	-8.418229e+001
51613750	-4.667776e+001	-8.616662e+001	-7.500945e-003	-3.631299e+000	-6.555247e-003	-3.651031e+000	-4.596000e+001	-8.635961e+001
54425625	-4.644326e+001	-8.514698e+001	-5.724465e-003	-3.852079e+000	-8.561935e-003	-3.845313e+000	-4.470148e+001	-8.604553e+001
57237500	-4.565035e+001	-8.724334e+001	-6.372644e-003	-4.037779e+000	-6.196788e-003	-4.047670e+000	-4.429185e+001	-8.387668e+001
60049375	-4.497781e+001	-8.786054e+001	-9.028945e-003	-4.223225e+000	-5.701238e-003	-4.226443e+000	-4.374210e+001	-8.572182e+001
62861250	-4.500717e+001	-8.439383e+001	-7.447919e-003	-4.420550e+000	-7.587945e-003	-4.419993e+000	-4.390128e+001	-8.948381e+001
65673125	-4.455347e+001	-8.981004e+001	-5.782053e-003	-4.616141e+000	-4.725842e-003	-4.630084e+000	-4.448457e+001	-8.236718e+001
68485000	-4.445273e+001	-8.512571e+001	-5.660678e-003	-4.809295e+000	-6.408422e-003	-4.820008e+000	-4.418163e+001	-8.409855e+001
71296875	-4.385061e+001	-8.761318e+001	-6.037471e-003	-5.002484e+000	-5.773620e-003	-5.008514e+000	-4.394359e+001	-8.289850e+001
74108750	-4.357191e+001	-9.003117e+001	-4.291553e-003	-5.200083e+000	-6.365496e-003	-5.206269e+000	-4.336338e+001	-8.177134e+001
76920625	-4.330831e+001	-8.975216e+001	-3.975390e-003	-5.401803e+000	-5.831256e-003	-5.416613e+000	-4.324538e+001	-8.230682e+001
79732500	-4.270331e+001	-8.902350e+001	-6.407406e-003	-5.594676e+000	-5.319568e-003	-5.591469e+000	-4.312019e+001	-8.616741e+001
82544375	-4.288657e+001	-8.848706e+001	-2.858826e-003	-5.781537e+000	-5.972762e-003	-5.781527e+000	-4.238226e+001	-8.741007e+001
85356250	-4.235709e+001	-8.808679e+001	-4.815424e-003	-5.976509e+000	-7.026791e-003	-5.984407e+000	-4.194050e+001	-8.817089e+001
88168125	-4.167823e+001	-8.950941e+001	-6.467734e-003	-6.163561e+000	-7.669221e-003	-6.186861e+000	-4.208220e+001	-8.192729e+001
90980000	-4.168057e+001	-9.102562e+001	-5.488441e-003	-6.363011e+000	-7.597636e-003	-6.385256e+000	-4.204139e+001	-8.163869e+001
93791875	-4.161271e+001	-9.137501e+001	-6.763230e-003	-6.545740e+000	-1.030452e-002	-6.561675e+000	-4.129441e+001	-8.537270e+001
96603750	-4.110523e+001	-8.992670e+001	-9.359152e-003	-6.759642e+000	-1.059659e-002	-6.770195e+000	-4.139824e+001	-8.610471e+001
99415625	-4.065856e+001	-9.317298e+001	-8.244722e-003	-6.957927e+000	-9.248765e-003	-6.979715e+000	-4.152225e+001	-8.310387e+001
102227500	-4.030664e+001	-9.259448e+001	-7.569483e-003	-7.132771e+000	-8.397403e-003	-7.147243e+000	-4.062676e+001	-8.918407e+001
105039375	-4.028544e+001	-9.198464e+001	-9.043693e-003	-7.325995e+000	-9.121807e-003	-7.338671e+000	-4.024584e+001	-8.936098e+001
107851250	-4.004827e+001	-9.582441e+001	-6.479209e-003	-7.554028e+000	-8.700483e-003	-7.566784e+000	-4.115173e+001	-8.525573e+001
110663125	-3.994760e+001	-9.285430e+001	-8.254694e-003	-7.742889e+000	-9.086927e-003	-7.735079e+000	-4.076038e+001	-8.769444e+001
113475000	-3.970395e+001	-9.400384e+001	-8.001133e-003	-7.896295e+000	-6.819748e-003	-7.906526e+000	-3.946738e+001	-9.282423e+001
116286875	-3.940631e+001	-9.429028e+001	-7.458872e-003	-8.108334e+000	-8.389436e-003	-8.109955e+000	-3.962253e+001	-9.125713e+001
119098750	-3.917588e+001	-9.505822e+001	-6.949426e-003	-8.291805e+000	-7.037280e-003	-8.303509e+000	-3.925913e+001	-9.109687e+001
121910625	-3.893057e+001	-9.646870e+001	-5.801166e-003	-8.478684e+000	-8.726831e-003	-8.482729e+000	-3.881586e+001	-9.228242e+001
124722500	-3.864510e+001	-9.746271e+001	-5.585518e-003	-8.683659e+000	-9.145215e-003	-8.683311e+000	-3.889225e+001	-9.334434e+001
127534375	-3.834731e+001	-9.687477e+001	-7.859305e-003	-8.848878e+000	-8.173288e-003	-8.863675e+000	-3.835314e+001	-9.332163e+001
130346250	-3.819957e+001	-9.805916e+001	-5.895278e-003	-9.064232e+000	-7.991879e-003	-9.071936e+000	-3.857890e+001	-9.475774e+001
133158125	-3.798022e+001	-9.668888e+001	-8.933975e-003	-9.233185e+000	-9.116451e-003	-9.246940e+000	-3.816464e+001	-9.316229e+001
135970000	-3.826159e+001	-9.836581e+001	-6.352612e-003	-9.461335e+000	-7.328581e-003	-9.464579e+000	-3.809731e+001	-9.561893e+001
138781875	-3.787328e+001	-9.628576e+001	-6.759465e-003	-9.640639e+000	-1.022066e-002	-9.660337e+000	-3.810276e+001	-9.423527e+001
141593750	-3.781594e+001	-9.792385e+001	-6.942126e-003	-9.843436e+000	-9.531320e-003	-9.867323e+000	-3.798724e+001	-9.526715e+001
144405625	-3.762517e+001	-9.785768e+001	-6.794987e-003	-1.003539e+001	-7.436833e-003	-1.004828e+001	-3.771186e+001	-9.616085e+001
147217500	-3.763737e+001	-9.890180e+001	-7.295423e-003	-1.020968e+001	-7.511735e-003	-1.023196e+001	-3.702600e+001	-9.458882e+001
150029375	-3.771702e+001	-9.905893e+001	-7.687243e-003	-1.041203e+001	-7.071742e-003	-1.040911e+001	-3.681339e+001	-9.322028e+001
152841250	-3.733351e+001	-9.909343e+001	-8.763381e-003	-1.058872e+001	-8.248172e-003	-1.060746e+001	-3.655966e+001	-9.326030e+001
155653125	-3.708968e+001	-9.938725e+001	-9.045514e-003	-1.078435e+001	-7.099934e-003	-1.080407e+001	-3.644756e+001	-9.469146e+001
158465000	-3.679014e+001	-9.955599e+001	-9.864376e-003	-1.097476e+001	-7.533467e-003	-1.099587e+001	-3.639672e+001	-9.536206e+001
161276875	-3.675616e+001	-9.855519e+001	-7.123680e-003	-1.119443e+001	-7.688395e-003	-1.119486e+001	-3.639290e+001	-9.641940e+001
164088750	-3.654302e+001	-9.944713e+001	-7.316843e-003	-1.136194e+001	-8.237018e-003	-1.136850e+001	-3.605665e+001	-9.455931e+001
166900625	-3.647279e+001	-1.000605e+002	-6.840246e-003	-1.153160e+001	-8.051412e-003	-1.153935e+001	-3.568293e+001	-9.179759e+001
169712500	-3.635037e+001	-9.973556e+001	-6.377696e-003	-1.177574e+001	-6.454812e-003	-1.178138e+001	-3.604229e+001	-9.734024e+001
172524375	-3.611209e+001	-9.911750e+001	-7.667829e-003	-1.197854e+001	-9.403945e-003	-1.197883e+001	-3.608091e+001	-9.938261e+001
175336250	-3.588098e+001	-9.980088e+001	-5.495921e-003	-1.213062e+001	-9.220559e-003	-1.214972e+001	-3.583215e+001	-9.588966e+001
178148125	-3.578545e+001	-9.989169e+001	-5.844529e-003	-1.233368e+001	-6.295046e-003	-1.234742e+001	-3.551171e+001	-9.718870e+001
180960000	-3.559719e+001	-9.868639e+001	-6.594732e-003	-1.253896e+001	-9.111740e-003	-1.255743e+001	-3.566493e+001	-1.016046e+002
183771875	-3.561932e+001	-1.006470e+002	-6.578585e-003	-1.271267e+001	-8.750768e-003	-1.273039e+001	-3.558446e+001	-9.899738e+001
186583750	-3.560275e+001	-1.020518e+002	-7.377938e-003	-1.289954e+001	-9.624505e-003	-1.291733e+001	-3.550063e+001	-9.709461e+001
189395625	-3.521792e+001	-1.032314e+002	-6.099092e-003	-1.308158e+001	-6.913364e-003	-1.311276e+001	-3.521060e+001	-9.720160e+001
192207500	-3.526038e+001	-1.032235e+002	-7.938304e-003	-1.327155e+001	-8.980758e-003	-1.330012e+001	-3.525492e+001	-9.787100e+001
195019375	-3.516827e+001	-1.008387e+002	-9.485008e-003	-1.346488e+001	-1.118295e-002	-1.348017e+001	-3.521684e+001	-9.989742e+001
197831250	-3.497032e+001	-1.019723e+002	-9.176643e-003	-1.367772e+001	-1.026851e-002	-1.367889e+001	-3.509495e+001	-9.945847e+001
200643125	-3.495189e+001	-1.006786e+002	-9.317066e-003	-1.388760e+001	-9.617937e-003	-1.389788e+001	-3.494882e+001	-1.011906e+002
203455000	-3.483148e+001	-1.016977e+002	-1.014001e-002	-1.408384e+001	-9.219953e-003	-1.409786e+001	-3.496356e+001	-1.004819e+002
206266875	-3.483191e+001	-1.022997e+002	-9.181209e-003	-1.427914e+001	-8.891208e-003	-1.427254e+001	-3.485538e+001	-9.830347e+001
209078750	-3.474022e+001	-1.022913e+002	-9.381816e-003	-1.446711e+001	-8.728840e-003	-1.447857e+001	-3.468650e+001	-9.823697e+001
211890625	-3.467071e+001	-1.037316e+002	-9.946457e-003	-1.464134e+001	-9.245255e-003	-1.466671e+001	-3.484703e+001	-9.593126e+001
214702500	-3.442104e+001	-1.029987e+002	-1.096805e-002	-1.487671e+001	-9.759657e-003	-1.488275e+001	-3.447722e+001	-9.992646e+001
217514375	-3.441056e+001	-1.026665e+002	-1.098687e-002	-1.505433e+001	-1.064022e-002	-1.508213e+001	-3.446880e+001	-1.003667e+002
220326250	-3.419767e+001	-1.027227e+002	-9.203456e-003	-1.525784e+001	-1.003221e-002	-1.527346e+001	-3.417085e+001	-1.009780e+002
223138125	-3.402385e+001	-1.022309e+002	-8.831575e-003	-1.544578e+001	-9.786987e-003	-1.546120e+001	-3.411555e+001	-1.010869e+002
225950000	-3.393994e+001	-1.024229e+002	-1.016710e-002	-1.562861e+001	-9.150840e-003	-1.563825e+001	-3.427592e+001	-9.917399e+001
228761875	-3.384358e+001	-1.028138e+002	-9.949643e-003	-1.582572e+001	-8.926821e-003	-1.583451e+001	-3.407658e+001	-9.978805e+001
231573750	-3.362598e+001	-1.027131e+002	-9.862693e-003	-1.599771e+001	-8.579222e-003	-1.602127e+001	-3.404574e+001	-9.909614e+001
234385625	-3.351069e+001	-1.043062e+002	-8.165449e-003	-1.621352e+001	-8.225726e-003	-1.621355e+001	-3.400441e+001	-9.882935e+001
237197500	-3.351264e+001	-1.040318e+002	-9.760551e-003	-1.641515e+001	-9.020698e-003	-1.641975e+001	-3.370345e+001	-1.003263e+002
240009375	-3.334450e+001	-1.033611e+002	-7.488509e-003	-1.661286e+001	-7.626032e-003	-1.661619e+001	-3.356427e+001	-1.007918e+002
242821250	-3.340185e+001	-1.038996e+002	-9.152212e-003	-1.680654e+001	-9.330143e-003	-1.681725e+001	-3.337257e+001	-1.010403e+002
245633125	-3.343295e+001	-1.038647e+002	-6.857646e-003	-1.698722e+001	-7.102511e-003	-1.701814e+001	-3.331049e+001	-1.011496e+002
248445000	-3.332591e+001	-1.041424e+002	-7.099240e-003	-1.717654e+001	-7.244705e-003	-1.720836e+001	-3.335884e+001	-1.015676e+002
251256875	-3.311244e+001	-1.038270e+002	-8.916562e-003	-1.738745e+001	-9.273719e-003	-1.740637e+001	-3.310120e+001	-1.020155e+002
254068750	-3.308438e+001	-1.042162e+002	-8.934559e-003	-1.756918e+001	-9.232282e-003	-1.758655e+001	-3.303492e+001	-1.016467e+002
256880625	-3.308128e+001	-1.048610e+002	-1.031644e-002	-1.777763e+001	-8.771067e-003	-1.779984e+001	-3.287740e+001	-1.015119e+002
259692500	-3.292051e+001	-1.050259e+002	-9.116972e-003	-1.798920e+001	-1.127269e-002	-1.800043e+001	-3.269155e+001	-1.020870e+002
262504375	-3.289056e+001	-1.050072e+002	-9.214031e-003	-1.817220e+001	-1.059515e-002	-1.817981e+001	-3.270265e+001	-1.025834e+002
265316250	-3.282513e+001	-1.039431e+002	-8.543396e-003	-1.837365e+001	-1.109892e-002	-1.837222e+001	-3.267932e+001	-1.028530e+002
268128125	-3.274726e+001	-1.037601e+002	-7.842095e-003	-1.855798e+001	-1.182535e-002	-1.856336e+001	-3.270908e+001	-1.028562e+002
270940000	-3.270903e+001	-1.043747e+002	-8.683282e-003	-1.875292e+001	-9.738456e-003	-1.875596e+001	-3.244643e+001	-1.032604e+002
273751875	-3.260119e+001	-1.049405e+002	-8.730024e-003	-1.893965e+001	-1.028582e-002	-1.894035e+001	-3.236193e+001	-1.029672e+002
276563750	-3.262932e+001	-1.053542e+002	-9.666553e-003	-1.914122e+001	-1.131976e-002	-1.914146e+001	-3.213473e+001	-1.031576e+002
279375625	-3.235663e+001	-1.055653e+002	-1.093315e-002	-1.934408e+001	-1.450497e-002	-1.933976e+001	-3.203880e+001	-1.040181e+002
282187500	-3.235101e+001	-1.056960e+002	-1.023331e-002	-1.952317e+001	-1.380440e-002	-1.952757e+001	-3.202080e+001	-1.051617e+002
284999375	-3.221068e+001	-1.053663e+002	-1.252016e-002	-1.971376e+001	-1.241535e-002	-1.970895e+001	-3.205449e+001	-1.054362e+002
287811250	-3.209906e+001	-1.053372e+002	-9.243909e-003	-1.991761e+001	-1.315955e-002	-1.991857e+001	-3.189822e+001	-1.053556e+002
290623125	-3.207459e+001	-1.063848e+002	-9.926746e-003	-2.012030e+001	-1.148384e-002	-2.011170e+001	-3.190231e+001	-1.047705e+002
293435000	-3.198094e+001	-1.067677e+002	-9.630396e-003	-2.029989e+001	-9.228547e-003	-2.030169e+001	-3.199397e+001	-1.052514e+002
296246875	-3.195694e+001	-1.062476e+002	-6.838494e-003	-2.049813e+001	-9.505055e-003	-2.049031e+001	-3.194154e+001	-1.053075e+002
299058750	-3.189066e+001	-1.073152e+002	-5.992584e-003	-2.069245e+001	-7.251054e-003	-2.069505e+001	-3.187900e+001	-1.048026e+002
301870625	-3.191307e+001	-1.076100e+002	-5.776695e-003	-2.089819e+001	-6.737696e-003	-2.088992e+001	-3.165784e+001	-1.043558e+002
304682500	-3.174310e+001	-1.076498e+002	-1.045788e-002	-2.109823e+001	-7.162047e-003	-2.107621e+001	-3.168553e+001	-1.049026e+002
307494375	-3.166352e+001	-1.077752e+002	-9.675428e-003	-2.128462e+001	-8.276116e-003	-2.125342e+001	-3.166452e+001	-1.064426e+002
310306250	-3.167976e+001	-1.093355e+002	-9.329242e-003	-2.147794e+001	-9.311242e-003	-2.145390e+001	-3.146637e+001	-1.058051e+002
313118125	-3.140727e+001	-1.089531e+002	-1.220582e-002	-2.168518e+001	-1.126479e-002	-2.165541e+001	-3.137896e+001	-1.059400e+002
315930000	-3.145932e+001	-1.083853e+002	-1.105786e-002	-2.186065e+001	-1.036631e-002	-2.183387e+001	-3.135842e+001	-1.076763e+002
318741875	-3.139418e+001	-1.092946e+002	-1.245487e-002	-2.203361e+001	-1.200754e-002	-2.202292e+001	-3.120891e+001	-1.084758e+002
321553750	-3.132020e+001	-1.093598e+002	-1.320661e-002	-2.224719e+001	-1.259801e-002	-2.223743e+001	-3.119620e+001	-1.061208e+002
324365625	-3.128943e+001	-1.099749e+002	-1.180475e-002	-2.243345e+001	-1.262569e-002	-2.243771e+001	-3.111531e+001	-1.055513e+002
327177500	-3.112583e+001	-1.092757e+002	-1.399209e-002	-2.260845e+001	-1.420859e-002	-2.260514e+001	-3.093442e+001	-1.078487e+002
329989375	-3.112505e+001	-1.105196e+002	-1.310721e-002	-2.282161e+001	-1.548203e-002	-2.282633e+001	-3.092794e+001	-1.067504e+002
332801250	-3.099819e+001	-1.109459e+002	-1.269399e-002	-2.305023e+001	-1.376936e-002	-2.305834e+001	-3.109057e+001	-1.039427e+002
335613125	-3.088400e+001	-1.105992e+002	-1.053531e-002	-2.323203e+001	-1.454833e-002	-2.323031e+001	-3.091945e+001	-1.064475e+002
338425000	-3.085311e+001	-1.110081e+002	-8.888576e-003	-2.341549e+001	-1.365159e-002	-2.340894e+001	-3.080313e+001	-1.079439e+002
341236875	-3.083857e+001	-1.113763e+002	-9.261158e-003	-2.363989e+001	-1.199304e-002	-2.365542e+001	-3.110859e+001	-1.054931e+002
344048750	-3.074049e+001	-1.110186e+002	-1.037714e-002	-2.384241e+001	-1.215980e-002	-2.384937e+001	-3.094955e+001	-1.057059e+002
346860625	-3.074029e+001	-1.112613e+002	-8.777921e-003	-2.402411e+001	-1.025841e-002	-2.401969e+001	-3.075173e+001	-1.073757e+002
349672500	-3.069752e+001	-1.109171e+002	-8.526432e-003	-2.425478e+001	-1.073122e-002	-2.424094e+001	-3.080903e+001	-1.067823e+002
352484375	-3.062749e+001	-1.116072e+002	-8.621830e-003	-2.442427e+001	-1.275786e-002	-2.442167e+001	-3.061715e+001	-1.069716e+002
355296250	-3.064824e+001	-1.116287e+002	-1.083003e-002	-2.459138e+001	-1.181899e-002	-2.457700e+001	-3.028641e+001	-1.092300e+002
358108125	-3.057408e+001	-1.117405e+002	-1.305435e-002	-2.478827e+001	-1.476709e-002	-2.479318e+001	-3.040964e+001	-1.089003e+002
360920000	-3.050655e+001	-1.116397e+002	-1.501237e-002	-2.499023e+001	-1.713328e-002	-2.498665e+001	-3.041920e+001	-1.083577e+002
363731875	-3.045559e+001	-1.116236e+002	-1.560990e-002	-2.517268e+001	-1.696772e-002	-2.517644e+001	-3.031237e+001	-1.089277e+002
366543750	-3.034223e+001	-1.114710e+002	-1.611638e-002	-2.536944e+001	-1.880927e-002	-2.538265e+001	-3.042445e+001	-1.080404e+002
369355625	-3.025797e+001	-1.112978e+002	-1.892279e-002	-2.555893e+001	-2.049274e-002	-2.556087e+001	-3.029942e+001	-1.079121e+002
372167500	-3.029731e+001	-1.118360e+002	-1.813726e-002	-2.574780e+001	-2.046475e-002	-2.574818e+001	-3.002879e+001	-1.083092e+002
374979375	-3.018254e+001	-1.114262e+002	-2.145216e-002	-2.595329e+001	-2.338872e-002	-2.596104e+001	-3.028570e+001	-1.079738e+002
377791250	-3.005958e+001	-1.110403e+002	-2.321621e-002	-2.617220e+001	-2.582395e-002	-2.618227e+001	-3.048472e+001	-1.077874e+002
380603125	-3.026306e+001	-1.109442e+002	-2.424238e-002	-2.635742e+001	-2.625928e-002	-2.635901e+001	-3.014733e+001	-1.078656e+002
383415000	-3.012455e+001	-1.104607e+002	-2.653591e-002	-2.652805e+001	-2.753115e-002	-2.652745e+001	-2.990987e+001	-1.079970e+002
386226875	-3.008205e+001	-1.100864e+002	-3.022969e-002	-2.675295e+001	-3.115216e-002	-2.674769e+001	-3.008582e+001	-1.076120e+002
389038750	-2.990110e+001	-1.105256e+002	-2.827413e-002	-2.694560e+001	-3.055592e-002	-2.695122e+001	-3.003205e+001	-1.085416e+002
391850625	-2.974132e+001	-1.105128e+002	-2.967976e-002	-2.711892e+001	-3.199964e-002	-2.713539e+001	-3.002151e+001	-1.086639e+002
394662500	-2.964428e+001	-1.113984e+002	-2.637419e-002	-2.725704e+001	-2.875343e-002	-2.726515e+001	-2.956077e+001	-1.089768e+002
397474375	-2.963077e+001	-1.119859e+002	-2.654175e-002	-2.742959e+001	-3.003010e-002	-2.744096e+001	-2.926312e+001	-1.086064e+002
400286250	-2.952752e+001	-1.126282e+002	-2.432636e-002	-2.761578e+001	-2.953159e-002	-2.761331e+001	-2.926579e+001	-1.086984e+002
403098125	-2.939240e+001	-1.120831e+002	-2.552282e-002	-2.779985e+001	-2.793886e-002	-2.780212e+001	-2.927062e+001	-1.093935e+002
405910000	-2.944859e+001	-1.126204e+002	-2.220495e-002	-2.798848e+001	-2.824205e-002	-2.799370e+001	-2.917638e+001	-1.098276e+002
408721875	-2.929804e+001	-1.135808e+002	-2.140231e-002	-2.814876e+001	-2.422547e-002	-2.815578e+001	-2.889603e+001	-1.085859e+002
411533750	-2.919793e+001	-1.140215e+002	-1.852582e-002	-2.834132e+001	-2.434910e-002	-2.833865e+001	-2.885269e+001	-1.086427e+002
414345625	-2.912847e+001	-1.140373e+002	-1.923203e-002	-2.854645e+001	-2.065554e-002	-2.855221e+001	-2.894629e+001	-1.104267e+002
417157500	-2.905154e+001	-1.148120e+002	-1.905139e-002	-2.874444e+001	-2.128868e-002	-2.873785e+001	-2.891224e+001	-1.098840e+002
419969375	-2.901544e+001	-1.152962e+002	-1.915683e-002	-2.891376e+001	-2.122119e-002	-2.890913e+001	-2.867247e+001	-1.090896e+002
422781250	-2.899778e+001	-1.149416e+002	-1.826982e-002	-2.911953e+001	-1.997230e-002	-2.912782e+001	-2.871478e+001	-1.099108e+002
