!Agilent Technologies,N5242A,US46520174,A.09.00.04
!Agilent N5242A: A.09.00.04
!Date: Monday, September 18, 2017 14:45:24
!Correction: S11(Full 2 Port(1,2)) 
!S21(Full 2 Port(1,2)) 
!S12(Full 2 Port(1,2)) 
!S22(Full 2 Port(1,2)) 
!S2P File: Measurements: S11, S21, S12, S22:
# Hz S  RI   R 50
10000000 4.106015e-003 7.207500e-003 9.984612e-001 -9.091451e-003 1.001122e+000 -6.951370e-003 8.644620e-003 1.501615e-002
10898000 4.256395e-003 6.385532e-003 9.993392e-001 -8.044555e-003 9.994139e-001 -7.417216e-003 9.130258e-003 1.197014e-002
11796000 4.276118e-003 4.297024e-003 9.985599e-001 -7.117282e-003 1.000526e+000 -8.050338e-003 9.622332e-003 1.185783e-002
12694000 5.238173e-003 1.745624e-003 9.985584e-001 -6.001549e-003 9.995053e-001 -6.236129e-003 9.060433e-003 9.269742e-003
13592000 2.688948e-003 9.349496e-004 9.991027e-001 -6.573316e-003 1.000747e+000 -7.491457e-003 9.092344e-003 1.006379e-002
14490000 2.456198e-003 6.150815e-004 9.995298e-001 -6.328904e-003 1.000923e+000 -7.603942e-003 9.488973e-003 7.035219e-003
15388000 3.083846e-003 7.343976e-005 9.992740e-001 -5.413243e-003 1.000800e+000 -8.327816e-003 9.197063e-003 6.728297e-003
16286000 3.298506e-003 -6.321354e-004 9.991025e-001 -6.252929e-003 1.000475e+000 -6.799573e-003 9.028625e-003 5.107090e-003
17184000 6.239958e-004 -4.436773e-003 1.000220e+000 -5.208105e-003 9.998370e-001 -7.118305e-003 1.070385e-002 5.756368e-003
18082000 1.734676e-003 -3.252845e-003 9.993037e-001 -4.892281e-003 1.000807e+000 -6.899959e-003 9.757199e-003 3.894432e-003
18980000 4.218473e-005 -4.647299e-003 9.997908e-001 -6.269525e-003 1.000156e+000 -7.058448e-003 8.976647e-003 5.110027e-003
19878000 5.824099e-004 -5.416435e-003 1.000323e+000 -5.166525e-003 1.000132e+000 -7.894754e-003 8.338092e-003 3.494885e-003
20776000 -8.081081e-004 -4.987156e-003 1.000454e+000 -5.509542e-003 1.001237e+000 -7.443234e-003 9.209656e-003 2.590087e-003
21674000 -9.964750e-004 -6.878076e-003 1.000487e+000 -5.224675e-003 9.995267e-001 -7.028384e-003 9.088219e-003 2.625254e-003
22572000 -2.925203e-003 -6.954115e-003 1.001006e+000 -6.036558e-003 9.996572e-001 -6.341976e-003 8.151109e-003 2.010660e-003
23470000 -3.816311e-003 -7.424944e-003 1.000692e+000 -5.314500e-003 1.001038e+000 -7.154964e-003 8.293543e-003 1.966200e-003
24368000 -3.086203e-003 -7.808224e-003 1.000604e+000 -5.779409e-003 1.000362e+000 -6.515482e-003 7.772583e-003 1.433195e-003
25266000 -3.678209e-003 -7.308789e-003 1.000852e+000 -5.380959e-003 9.996235e-001 -6.957657e-003 7.262681e-003 5.588560e-004
26164000 -4.557745e-003 -7.843815e-003 1.000778e+000 -4.979085e-003 9.999929e-001 -6.782066e-003 7.402988e-003 4.737350e-004
27062000 -5.251131e-003 -7.656156e-003 1.000667e+000 -5.257677e-003 9.997854e-001 -6.404703e-003 7.532857e-003 1.593418e-004
27960000 -6.853926e-003 -8.521595e-003 1.001292e+000 -5.738729e-003 9.996135e-001 -6.515644e-003 7.677904e-003 1.393624e-004
28858000 -6.042934e-003 -7.941767e-003 1.000208e+000 -5.868194e-003 1.000044e+000 -6.391481e-003 7.059618e-003 -1.408158e-004
29756000 -7.838738e-003 -8.531723e-003 1.001134e+000 -5.907097e-003 9.994268e-001 -6.396271e-003 7.033001e-003 -2.654560e-005
30654000 -7.559652e-003 -7.820870e-003 1.000642e+000 -5.666384e-003 9.992852e-001 -6.496562e-003 7.157779e-003 -6.422256e-004
31552000 -7.789846e-003 -7.709354e-003 1.000732e+000 -6.032803e-003 9.994038e-001 -6.313988e-003 5.985247e-003 -8.348547e-004
32450000 -8.705419e-003 -7.775851e-003 1.000774e+000 -6.071670e-003 9.994227e-001 -6.255880e-003 6.225886e-003 -1.294943e-003
33348000 -9.253751e-003 -8.136277e-003 1.000947e+000 -5.937812e-003 9.992020e-001 -6.204350e-003 7.227683e-003 -1.068131e-003
34246000 -9.898085e-003 -8.421361e-003 1.000779e+000 -6.070406e-003 9.992992e-001 -5.935099e-003 5.931693e-003 -9.916936e-004
35144000 -1.112260e-002 -7.571336e-003 1.000234e+000 -6.206607e-003 9.992634e-001 -6.351548e-003 6.246602e-003 -3.572192e-004
36042000 -1.015378e-002 -7.277248e-003 1.000390e+000 -6.524764e-003 9.993379e-001 -6.464350e-003 5.314690e-003 -1.830365e-003
36940000 -1.092494e-002 -6.423899e-003 1.000882e+000 -6.178690e-003 9.995490e-001 -6.233089e-003 5.914428e-003 -1.662045e-003
37838000 -1.141227e-002 -7.298801e-003 1.000602e+000 -6.422874e-003 9.993899e-001 -6.215890e-003 5.323300e-003 -1.552760e-003
38736000 -1.252551e-002 -6.793801e-003 1.000544e+000 -6.769903e-003 9.999073e-001 -6.429355e-003 4.629570e-003 -1.361636e-003
39634000 -1.289343e-002 -5.965317e-003 1.000778e+000 -6.889897e-003 9.997607e-001 -6.722408e-003 5.168348e-003 -1.853637e-003
40532000 -1.308603e-002 -5.709736e-003 1.000621e+000 -6.890933e-003 9.997897e-001 -6.871090e-003 5.008587e-003 -1.666873e-003
41430000 -1.347229e-002 -5.782332e-003 1.000747e+000 -7.317279e-003 9.996227e-001 -7.001833e-003 5.026776e-003 -1.411117e-003
42328000 -1.437391e-002 -4.940030e-003 1.000784e+000 -7.282789e-003 1.000200e+000 -6.704438e-003 4.776902e-003 -1.609345e-003
43226000 -1.396963e-002 -4.487471e-003 1.000469e+000 -7.551063e-003 9.998296e-001 -6.479057e-003 4.711836e-003 -1.478923e-003
44124000 -1.378227e-002 -4.444780e-003 1.000533e+000 -7.494716e-003 9.999257e-001 -7.054203e-003 4.740088e-003 -1.965921e-003
45022000 -1.427577e-002 -3.939064e-003 1.000548e+000 -7.228773e-003 1.000029e+000 -6.994332e-003 3.799983e-003 -1.705766e-003
45920000 -1.444174e-002 -3.512337e-003 1.000334e+000 -7.227699e-003 1.000050e+000 -6.976712e-003 3.733337e-003 -2.102931e-003
46818000 -1.463847e-002 -3.101582e-003 1.000481e+000 -7.435050e-003 9.998193e-001 -7.421585e-003 4.112731e-003 -1.860061e-003
47716000 -1.459592e-002 -2.360934e-003 1.000567e+000 -7.700329e-003 1.000250e+000 -7.503266e-003 3.857272e-003 -1.503396e-003
48614000 -1.496116e-002 -2.596450e-003 1.000458e+000 -7.339609e-003 9.999130e-001 -7.387363e-003 4.016612e-003 -1.417601e-003
49512000 -1.488379e-002 -1.621444e-003 1.000221e+000 -7.888586e-003 1.000064e+000 -7.228281e-003 3.916721e-003 -1.678422e-003
50410000 -1.544709e-002 -1.183562e-003 1.000519e+000 -7.770901e-003 9.999441e-001 -7.704838e-003 3.932485e-003 -1.685578e-003
51308000 -1.539854e-002 -5.866351e-004 1.000252e+000 -7.960783e-003 1.000026e+000 -7.888633e-003 4.319107e-003 -1.245869e-003
52206000 -1.490108e-002 -2.923945e-006 1.000381e+000 -7.827878e-003 9.996890e-001 -8.062060e-003 3.968897e-003 -1.459760e-003
53104000 -1.491180e-002 -1.116500e-004 1.000237e+000 -7.648958e-003 1.000048e+000 -7.950972e-003 3.471561e-003 -8.587883e-004
54002000 -1.435792e-002 -4.010284e-004 1.000227e+000 -7.477149e-003 9.999433e-001 -7.542773e-003 3.091428e-003 -5.188742e-004
54900000 -1.381348e-002 9.141185e-004 1.000333e+000 -7.568092e-003 9.996424e-001 -8.310799e-003 2.728064e-003 -1.321377e-003
55798000 -1.448609e-002 7.614175e-004 1.000407e+000 -7.584964e-003 9.997737e-001 -7.569815e-003 3.801333e-003 -1.126701e-003
56696000 -1.466923e-002 1.140974e-003 9.999738e-001 -7.698182e-003 1.000051e+000 -7.846675e-003 3.563741e-003 -1.225953e-003
57594000 -1.395353e-002 2.332288e-003 1.000087e+000 -7.889054e-003 9.998181e-001 -8.198898e-003 3.421779e-003 -1.209835e-003
58492000 -1.340687e-002 1.882268e-003 1.000350e+000 -7.966429e-003 9.996818e-001 -7.995983e-003 2.919599e-003 -1.830313e-004
59390000 -1.418578e-002 2.311845e-003 1.000040e+000 -7.924672e-003 9.997819e-001 -8.026411e-003 4.171279e-003 -5.101745e-004
60288000 -1.317647e-002 2.831131e-003 9.998863e-001 -8.056916e-003 9.995821e-001 -8.396873e-003 3.461922e-003 3.140031e-004
61186000 -1.330622e-002 2.990169e-003 1.000218e+000 -8.055815e-003 9.996441e-001 -8.325856e-003 3.231131e-003 9.194688e-005
62084000 -1.349284e-002 3.293874e-003 1.000002e+000 -8.211311e-003 9.997545e-001 -8.750712e-003 4.555944e-003 7.631542e-005
62982000 -1.234091e-002 3.993257e-003 9.999755e-001 -8.161360e-003 9.994857e-001 -8.168418e-003 3.307776e-003 -3.805033e-004
63880000 -1.288261e-002 4.117200e-003 1.000150e+000 -8.394293e-003 9.997829e-001 -8.918387e-003 4.126741e-003 -4.646617e-004
64778000 -1.320241e-002 4.999831e-003 1.000154e+000 -8.575309e-003 9.995869e-001 -8.783637e-003 4.521175e-003 -2.292384e-004
65676000 -1.178519e-002 4.643836e-003 1.000243e+000 -8.382430e-003 9.992161e-001 -8.616602e-003 3.910246e-003 -1.335130e-004
66574000 -1.168113e-002 5.306262e-003 1.000040e+000 -8.663365e-003 9.994010e-001 -8.843669e-003 4.663428e-003 -3.427315e-004
67472000 -1.136866e-002 5.375513e-003 1.000168e+000 -8.820585e-003 9.991987e-001 -8.827471e-003 4.123762e-003 1.368873e-004
68370000 -1.135495e-002 5.339689e-003 1.000175e+000 -8.911818e-003 9.995241e-001 -9.136927e-003 4.178578e-003 2.940160e-004
69268000 -1.053749e-002 5.873551e-003 1.000157e+000 -8.999243e-003 9.993092e-001 -8.892524e-003 4.208541e-003 -2.714161e-004
70166000 -1.020288e-002 5.989955e-003 1.000416e+000 -8.492705e-003 9.994185e-001 -9.231851e-003 4.828773e-003 -2.022865e-004
71064000 -9.682961e-003 6.488819e-003 9.999703e-001 -9.015041e-003 9.991490e-001 -9.326111e-003 4.727055e-003 1.335118e-004
71962000 -9.388310e-003 6.148005e-003 1.000151e+000 -8.944073e-003 9.993914e-001 -9.219592e-003 4.721453e-003 4.101028e-005
72860000 -8.602492e-003 6.535162e-003 1.000061e+000 -9.229494e-003 9.995946e-001 -8.898940e-003 4.316121e-003 -2.516842e-004
73758000 -8.119342e-003 6.642867e-003 1.000269e+000 -9.208073e-003 9.991543e-001 -9.397076e-003 4.456808e-003 -4.005575e-004
74656000 -8.206311e-003 6.770324e-003 9.999821e-001 -9.378668e-003 9.993092e-001 -9.480143e-003 5.368382e-003 4.663306e-005
75554000 -7.966022e-003 6.550535e-003 1.000563e+000 -9.440186e-003 9.990473e-001 -9.388326e-003 5.382063e-003 -9.135820e-005
76452000 -7.308527e-003 6.773937e-003 1.000148e+000 -9.549066e-003 9.992703e-001 -9.278611e-003 5.435204e-003 -1.403087e-004
77350000 -6.939563e-003 6.812370e-003 1.000147e+000 -9.570451e-003 9.990278e-001 -9.533877e-003 5.514773e-003 -2.686631e-004
78248000 -6.903094e-003 6.768520e-003 1.000356e+000 -9.338957e-003 9.992623e-001 -9.072747e-003 5.778403e-003 -5.021518e-004
79146000 -6.189405e-003 6.584119e-003 1.000050e+000 -9.295585e-003 9.995166e-001 -9.496170e-003 5.515967e-003 -3.337169e-004
80044000 -5.592780e-003 6.505652e-003 1.000261e+000 -9.446217e-003 9.989285e-001 -9.726514e-003 5.826255e-003 -3.936963e-004
80942000 -5.089863e-003 6.337864e-003 1.000304e+000 -9.753836e-003 9.995213e-001 -9.761843e-003 5.526216e-003 -3.448638e-004
81840000 -4.890715e-003 6.636557e-003 1.000255e+000 -1.016080e-002 9.994905e-001 -9.659047e-003 5.884232e-003 -1.060218e-003
82738000 -4.176961e-003 6.042975e-003 1.000273e+000 -1.005624e-002 9.995186e-001 -1.005133e-002 5.389049e-003 -1.002078e-003
83636000 -3.881574e-003 5.905515e-003 1.000258e+000 -1.026805e-002 9.991808e-001 -9.900870e-003 5.724746e-003 -1.029866e-003
84534000 -3.683495e-003 6.272877e-003 9.999523e-001 -1.035552e-002 9.993149e-001 -1.030578e-002 6.012984e-003 -1.783043e-003
85432000 -3.526778e-003 5.698976e-003 1.000018e+000 -1.034197e-002 9.995977e-001 -1.034134e-002 6.208879e-003 -1.510310e-003
86330000 -3.207541e-003 5.488543e-003 9.999763e-001 -1.059914e-002 9.993730e-001 -1.043127e-002 6.166362e-003 -1.459576e-003
87228000 -2.568199e-003 4.964242e-003 9.998389e-001 -1.059422e-002 9.996903e-001 -1.044351e-002 6.149105e-003 -2.123953e-003
88126000 -2.657917e-003 5.166697e-003 1.000009e+000 -1.085268e-002 9.997397e-001 -1.063453e-002 6.026541e-003 -2.346629e-003
89024000 -1.883795e-003 4.486038e-003 9.999677e-001 -1.096508e-002 9.993524e-001 -1.043575e-002 6.064901e-003 -2.204228e-003
89922000 -1.736148e-003 3.911491e-003 9.998122e-001 -1.081078e-002 9.991708e-001 -1.050529e-002 6.434090e-003 -2.396525e-003
90820000 -1.553110e-003 3.765824e-003 1.000033e+000 -1.105586e-002 9.994478e-001 -1.070100e-002 6.217249e-003 -2.290728e-003
91718000 -9.395909e-004 3.296254e-003 1.000053e+000 -1.121745e-002 9.992758e-001 -1.088926e-002 6.073973e-003 -2.095158e-003
92616000 -8.966332e-004 3.007807e-003 9.996720e-001 -1.133946e-002 9.996367e-001 -1.121862e-002 6.573768e-003 -2.473785e-003
93514000 -1.175753e-003 2.815747e-003 9.997590e-001 -1.140452e-002 9.998638e-001 -1.110672e-002 6.140084e-003 -2.511352e-003
94412000 -6.475244e-004 2.317579e-003 9.998912e-001 -1.155238e-002 9.992396e-001 -1.110369e-002 6.744740e-003 -2.612778e-003
95310000 -7.938911e-004 2.111394e-003 9.999482e-001 -1.189251e-002 9.994568e-001 -1.122692e-002 6.212018e-003 -2.853031e-003
96208000 -5.342079e-004 1.680511e-003 9.998969e-001 -1.175087e-002 9.993438e-001 -1.145006e-002 6.223872e-003 -2.864705e-003
97106000 -3.464674e-004 1.429356e-003 9.996846e-001 -1.215929e-002 9.993775e-001 -1.129466e-002 6.275571e-003 -2.703764e-003
98004000 -3.393408e-004 1.013284e-003 9.997270e-001 -1.204212e-002 9.996721e-001 -1.191586e-002 6.386620e-003 -2.854357e-003
98902000 4.068232e-005 5.583678e-004 9.999264e-001 -1.192246e-002 9.992192e-001 -1.200834e-002 6.512254e-003 -2.685141e-003
99800000 -2.026871e-004 2.507466e-004 9.998395e-001 -1.212996e-002 9.996499e-001 -1.177898e-002 6.553009e-003 -3.017666e-003
100698000 -1.495311e-004 -1.372244e-004 9.998124e-001 -1.231800e-002 9.996235e-001 -1.181465e-002 6.139489e-003 -3.034211e-003
101596000 1.425316e-004 -7.122682e-004 9.997548e-001 -1.234024e-002 9.994090e-001 -1.196761e-002 6.043833e-003 -2.962835e-003
102494000 7.128173e-005 -6.610051e-004 9.999342e-001 -1.255794e-002 9.993218e-001 -1.216448e-002 6.294602e-003 -3.017579e-003
103392000 2.055483e-004 -1.176292e-003 9.999515e-001 -1.233457e-002 9.995905e-001 -1.226301e-002 5.857940e-003 -3.030528e-003
104290000 1.709098e-004 -1.499368e-003 9.996677e-001 -1.258826e-002 9.992687e-001 -1.253072e-002 6.004311e-003 -3.105112e-003
105188000 1.520935e-004 -1.728469e-003 9.994092e-001 -1.279304e-002 9.992369e-001 -1.249695e-002 6.368304e-003 -3.249654e-003
106086000 8.684808e-004 -2.346043e-003 9.993360e-001 -1.296491e-002 9.994764e-001 -1.241208e-002 6.029604e-003 -3.130020e-003
106984000 4.819620e-004 -2.795807e-003 9.993982e-001 -1.278774e-002 9.994034e-001 -1.281476e-002 5.921890e-003 -2.953240e-003
107882000 4.269637e-004 -2.829659e-003 9.998134e-001 -1.288007e-002 9.990652e-001 -1.269769e-002 5.668685e-003 -3.169382e-003
108780000 -9.753644e-005 -3.420734e-003 9.995556e-001 -1.279361e-002 9.994607e-001 -1.307429e-002 6.177999e-003 -3.147183e-003
109678000 -1.033596e-004 -3.287192e-003 9.994866e-001 -1.339767e-002 9.989811e-001 -1.320870e-002 6.140576e-003 -3.257718e-003
110576000 1.675942e-004 -3.960654e-003 9.995599e-001 -1.336328e-002 9.994884e-001 -1.285567e-002 5.722404e-003 -3.672247e-003
111474000 -2.470935e-004 -4.328772e-003 9.996750e-001 -1.368300e-002 9.994685e-001 -1.288398e-002 6.301845e-003 -3.321881e-003
112372000 -2.372867e-004 -4.369774e-003 9.996283e-001 -1.348920e-002 9.990831e-001 -1.304541e-002 5.773638e-003 -3.392538e-003
113270000 -4.122800e-004 -4.668232e-003 9.995099e-001 -1.350023e-002 9.995409e-001 -1.348570e-002 5.492253e-003 -3.478664e-003
114168000 -9.000037e-004 -5.526421e-003 9.994630e-001 -1.365785e-002 9.992304e-001 -1.330785e-002 5.787518e-003 -3.586967e-003
115066000 -1.020736e-003 -5.120424e-003 9.997861e-001 -1.379085e-002 9.995463e-001 -1.346192e-002 5.815405e-003 -3.755235e-003
115964000 -9.354973e-004 -5.907567e-003 9.995129e-001 -1.378404e-002 9.991981e-001 -1.323790e-002 5.622490e-003 -3.404718e-003
116862000 -1.287852e-003 -5.889148e-003 9.993274e-001 -1.399197e-002 9.994899e-001 -1.352272e-002 5.596679e-003 -3.537975e-003
117760000 -2.091855e-003 -6.548855e-003 9.996521e-001 -1.388611e-002 9.993112e-001 -1.339555e-002 6.000438e-003 -3.939765e-003
118658000 -1.940195e-003 -6.908456e-003 9.995815e-001 -1.384410e-002 9.995640e-001 -1.336061e-002 5.387544e-003 -3.606559e-003
119556000 -1.751151e-003 -7.246274e-003 9.994498e-001 -1.401163e-002 9.992180e-001 -1.356754e-002 5.139862e-003 -3.340972e-003
120454000 -1.755844e-003 -7.105426e-003 9.995469e-001 -1.423780e-002 9.998720e-001 -1.347677e-002 5.552620e-003 -3.453556e-003
121352000 -2.605013e-003 -7.309125e-003 9.999176e-001 -1.436029e-002 9.991598e-001 -1.378272e-002 5.676993e-003 -4.151708e-003
122250000 -2.320979e-003 -7.994412e-003 9.996538e-001 -1.440160e-002 9.991866e-001 -1.398609e-002 5.237786e-003 -3.195690e-003
123148000 -3.100251e-003 -7.875581e-003 9.997161e-001 -1.475622e-002 9.993264e-001 -1.415821e-002 5.243040e-003 -3.663372e-003
124046000 -2.999539e-003 -8.240568e-003 9.997098e-001 -1.428428e-002 9.994537e-001 -1.426120e-002 5.183043e-003 -3.907655e-003
124944000 -3.481135e-003 -8.407315e-003 9.997733e-001 -1.451067e-002 9.994500e-001 -1.407758e-002 5.161024e-003 -3.745268e-003
125842000 -3.925766e-003 -8.850482e-003 9.998081e-001 -1.465364e-002 9.996121e-001 -1.434158e-002 4.965855e-003 -3.277263e-003
126740000 -4.292893e-003 -8.631903e-003 9.999023e-001 -1.488399e-002 9.993077e-001 -1.415843e-002 5.191640e-003 -3.321163e-003
127638000 -4.262126e-003 -9.058378e-003 9.996383e-001 -1.494056e-002 9.994177e-001 -1.424576e-002 5.544661e-003 -3.723816e-003
128536000 -4.768994e-003 -9.014361e-003 9.997109e-001 -1.483665e-002 9.994982e-001 -1.443019e-002 4.877991e-003 -3.865657e-003
129434000 -4.928022e-003 -9.268115e-003 9.991257e-001 -1.490607e-002 9.997301e-001 -1.462186e-002 5.547137e-003 -3.671629e-003
130332000 -5.373691e-003 -9.028099e-003 9.998747e-001 -1.516505e-002 9.997801e-001 -1.461692e-002 5.166081e-003 -3.933204e-003
131230000 -6.076189e-003 -9.125136e-003 9.997771e-001 -1.519295e-002 9.997675e-001 -1.454628e-002 5.128474e-003 -3.958657e-003
132128000 -5.996332e-003 -9.379549e-003 9.993904e-001 -1.523087e-002 9.997184e-001 -1.489913e-002 5.034279e-003 -3.965212e-003
133026000 -6.352869e-003 -9.564515e-003 9.997177e-001 -1.518637e-002 9.994808e-001 -1.480049e-002 5.417849e-003 -3.998077e-003
133924000 -6.897959e-003 -9.626215e-003 9.994687e-001 -1.529163e-002 9.994311e-001 -1.500680e-002 5.036794e-003 -4.037295e-003
134822000 -7.226887e-003 -9.468602e-003 9.994168e-001 -1.537616e-002 9.994900e-001 -1.510546e-002 5.399246e-003 -3.834942e-003
135720000 -7.238712e-003 -9.695910e-003 9.993974e-001 -1.551502e-002 9.994757e-001 -1.511190e-002 5.599935e-003 -3.806658e-003
136618000 -7.377258e-003 -9.686819e-003 9.992561e-001 -1.544413e-002 9.995590e-001 -1.506389e-002 5.170322e-003 -4.005692e-003
137516000 -7.883410e-003 -9.774804e-003 9.994052e-001 -1.548522e-002 9.995183e-001 -1.500614e-002 5.086173e-003 -3.601541e-003
138414000 -8.491420e-003 -9.460660e-003 9.993921e-001 -1.588755e-002 9.997141e-001 -1.523100e-002 5.357505e-003 -3.921280e-003
139312000 -8.724386e-003 -9.252886e-003 9.996820e-001 -1.562837e-002 9.995537e-001 -1.572306e-002 5.657596e-003 -4.113667e-003
140210000 -9.065283e-003 -9.463360e-003 9.997439e-001 -1.558190e-002 9.998683e-001 -1.566938e-002 5.271516e-003 -4.232634e-003
141108000 -9.488209e-003 -9.635391e-003 9.995440e-001 -1.587728e-002 9.995797e-001 -1.561037e-002 5.337699e-003 -4.190939e-003
142006000 -9.508857e-003 -9.198155e-003 9.995642e-001 -1.575364e-002 9.996364e-001 -1.560984e-002 5.625070e-003 -4.254108e-003
142904000 -9.756291e-003 -9.142118e-003 9.990923e-001 -1.576295e-002 9.996761e-001 -1.581170e-002 5.603997e-003 -4.388704e-003
143802000 -1.001761e-002 -9.321163e-003 9.992780e-001 -1.586466e-002 9.993872e-001 -1.588302e-002 5.578635e-003 -4.043143e-003
144700000 -1.072464e-002 -9.001806e-003 9.992253e-001 -1.632032e-002 9.997198e-001 -1.600163e-002 5.825662e-003 -4.537392e-003
145598000 -1.055972e-002 -8.556863e-003 9.994235e-001 -1.609693e-002 9.995257e-001 -1.601135e-002 5.985303e-003 -4.396209e-003
146496000 -1.104878e-002 -8.671407e-003 9.994276e-001 -1.607258e-002 9.996918e-001 -1.694460e-002 6.155181e-003 -4.472211e-003
147394000 -1.129283e-002 -8.412254e-003 9.993635e-001 -1.659210e-002 9.994714e-001 -1.626670e-002 6.350630e-003 -4.142269e-003
148292000 -1.167429e-002 -8.258028e-003 9.995759e-001 -1.642038e-002 9.989218e-001 -1.669966e-002 5.931671e-003 -3.973314e-003
149190000 -1.198613e-002 -8.169752e-003 9.993100e-001 -1.683712e-002 9.994346e-001 -1.625232e-002 6.371055e-003 -4.193394e-003
